|MIPS
OPERACAOFORCADA[0] => extend_16_to_32:EXTENSORDESINAL.entrada[0]
OPERACAOFORCADA[1] => extend_16_to_32:EXTENSORDESINAL.entrada[1]
OPERACAOFORCADA[2] => extend_16_to_32:EXTENSORDESINAL.entrada[2]
OPERACAOFORCADA[3] => extend_16_to_32:EXTENSORDESINAL.entrada[3]
OPERACAOFORCADA[4] => extend_16_to_32:EXTENSORDESINAL.entrada[4]
OPERACAOFORCADA[5] => extend_16_to_32:EXTENSORDESINAL.entrada[5]
OPERACAOFORCADA[6] => extend_16_to_32:EXTENSORDESINAL.entrada[6]
OPERACAOFORCADA[7] => extend_16_to_32:EXTENSORDESINAL.entrada[7]
OPERACAOFORCADA[8] => extend_16_to_32:EXTENSORDESINAL.entrada[8]
OPERACAOFORCADA[9] => extend_16_to_32:EXTENSORDESINAL.entrada[9]
OPERACAOFORCADA[10] => extend_16_to_32:EXTENSORDESINAL.entrada[10]
OPERACAOFORCADA[11] => extend_16_to_32:EXTENSORDESINAL.entrada[11]
OPERACAOFORCADA[11] => flipflop:PIPE2.D[0]
OPERACAOFORCADA[12] => extend_16_to_32:EXTENSORDESINAL.entrada[12]
OPERACAOFORCADA[12] => flipflop:PIPE2.D[1]
OPERACAOFORCADA[13] => extend_16_to_32:EXTENSORDESINAL.entrada[13]
OPERACAOFORCADA[13] => flipflop:PIPE2.D[2]
OPERACAOFORCADA[14] => extend_16_to_32:EXTENSORDESINAL.entrada[14]
OPERACAOFORCADA[14] => flipflop:PIPE2.D[3]
OPERACAOFORCADA[15] => extend_16_to_32:EXTENSORDESINAL.entrada[15]
OPERACAOFORCADA[15] => flipflop:PIPE2.D[4]
OPERACAOFORCADA[16] => RegBank:REGISSTRADORES.ReadReg2[0]
OPERACAOFORCADA[16] => flipflop:PIPE2.D[5]
OPERACAOFORCADA[17] => RegBank:REGISSTRADORES.ReadReg2[1]
OPERACAOFORCADA[17] => flipflop:PIPE2.D[6]
OPERACAOFORCADA[18] => RegBank:REGISSTRADORES.ReadReg2[2]
OPERACAOFORCADA[18] => flipflop:PIPE2.D[7]
OPERACAOFORCADA[19] => RegBank:REGISSTRADORES.ReadReg2[3]
OPERACAOFORCADA[19] => flipflop:PIPE2.D[8]
OPERACAOFORCADA[20] => RegBank:REGISSTRADORES.ReadReg2[4]
OPERACAOFORCADA[20] => flipflop:PIPE2.D[9]
OPERACAOFORCADA[21] => RegBank:REGISSTRADORES.ReadReg1[0]
OPERACAOFORCADA[22] => RegBank:REGISSTRADORES.ReadReg1[1]
OPERACAOFORCADA[23] => RegBank:REGISSTRADORES.ReadReg1[2]
OPERACAOFORCADA[24] => RegBank:REGISSTRADORES.ReadReg1[3]
OPERACAOFORCADA[25] => RegBank:REGISSTRADORES.ReadReg1[4]
OPERACAOFORCADA[26] => controle:CONTROLADOR.opcode[0]
OPERACAOFORCADA[27] => controle:CONTROLADOR.opcode[1]
OPERACAOFORCADA[28] => controle:CONTROLADOR.opcode[2]
OPERACAOFORCADA[29] => controle:CONTROLADOR.opcode[3]
OPERACAOFORCADA[30] => controle:CONTROLADOR.opcode[4]
OPERACAOFORCADA[31] => controle:CONTROLADOR.opcode[5]
saida[0] <= mux_2x1:mux3.saida[0]
saida[1] <= mux_2x1:mux3.saida[1]
saida[2] <= mux_2x1:mux3.saida[2]
saida[3] <= mux_2x1:mux3.saida[3]
saida[4] <= mux_2x1:mux3.saida[4]
saida[5] <= mux_2x1:mux3.saida[5]
saida[6] <= mux_2x1:mux3.saida[6]
saida[7] <= mux_2x1:mux3.saida[7]
saida[8] <= mux_2x1:mux3.saida[8]
saida[9] <= mux_2x1:mux3.saida[9]
saida[10] <= mux_2x1:mux3.saida[10]
saida[11] <= mux_2x1:mux3.saida[11]
saida[12] <= mux_2x1:mux3.saida[12]
saida[13] <= mux_2x1:mux3.saida[13]
saida[14] <= mux_2x1:mux3.saida[14]
saida[15] <= mux_2x1:mux3.saida[15]
saida[16] <= mux_2x1:mux3.saida[16]
saida[17] <= mux_2x1:mux3.saida[17]
saida[18] <= mux_2x1:mux3.saida[18]
saida[19] <= mux_2x1:mux3.saida[19]
saida[20] <= mux_2x1:mux3.saida[20]
saida[21] <= mux_2x1:mux3.saida[21]
saida[22] <= mux_2x1:mux3.saida[22]
saida[23] <= mux_2x1:mux3.saida[23]
saida[24] <= mux_2x1:mux3.saida[24]
saida[25] <= mux_2x1:mux3.saida[25]
saida[26] <= mux_2x1:mux3.saida[26]
saida[27] <= mux_2x1:mux3.saida[27]
saida[28] <= mux_2x1:mux3.saida[28]
saida[29] <= mux_2x1:mux3.saida[29]
saida[30] <= mux_2x1:mux3.saida[30]
saida[31] <= mux_2x1:mux3.saida[31]
clock => PC:ProgramCounter.clk
clock => memInst2:memInstrucao.clock
clock => flipflop:PIPE1.clk
clock => RegBank:REGISSTRADORES.clock
clock => flipflop:PIPE2.clk
clock => flipflop:PIPE3.clk
clock => memData:MEMORIADADOS.clock
clock => flipflop:PIPE4.clk
reset => PC:ProgramCounter.rst
reset => flipflop:PIPE1.rst
reset => RegBank:REGISSTRADORES.reset
reset => flipflop:PIPE2.rst
reset => flipflop:PIPE3.rst
reset => flipflop:PIPE4.rst


|MIPS|PC:ProgramCounter
clk => Temp[0].CLK
clk => Temp[1].CLK
clk => Temp[2].CLK
clk => Temp[3].CLK
clk => Temp[4].CLK
clk => Temp[5].CLK
clk => Temp[6].CLK
clk => Temp[7].CLK
clk => Temp[8].CLK
clk => Temp[9].CLK
clk => Temp[10].CLK
clk => Temp[11].CLK
clk => Temp[12].CLK
clk => Temp[13].CLK
clk => Temp[14].CLK
clk => Temp[15].CLK
clk => Temp[16].CLK
clk => Temp[17].CLK
clk => Temp[18].CLK
clk => Temp[19].CLK
clk => Temp[20].CLK
clk => Temp[21].CLK
clk => Temp[22].CLK
clk => Temp[23].CLK
clk => Temp[24].CLK
clk => Temp[25].CLK
clk => Temp[26].CLK
clk => Temp[27].CLK
clk => Temp[28].CLK
clk => Temp[29].CLK
clk => Temp[30].CLK
clk => Temp[31].CLK
rst => Temp[0].ACLR
rst => Temp[1].ACLR
rst => Temp[2].ACLR
rst => Temp[3].ACLR
rst => Temp[4].ACLR
rst => Temp[5].ACLR
rst => Temp[6].ACLR
rst => Temp[7].ACLR
rst => Temp[8].ACLR
rst => Temp[9].ACLR
rst => Temp[10].ACLR
rst => Temp[11].ACLR
rst => Temp[12].ACLR
rst => Temp[13].ACLR
rst => Temp[14].ACLR
rst => Temp[15].ACLR
rst => Temp[16].ACLR
rst => Temp[17].ACLR
rst => Temp[18].ACLR
rst => Temp[19].ACLR
rst => Temp[20].ACLR
rst => Temp[21].ACLR
rst => Temp[22].ACLR
rst => Temp[23].ACLR
rst => Temp[24].ACLR
rst => Temp[25].ACLR
rst => Temp[26].ACLR
rst => Temp[27].ACLR
rst => Temp[28].ACLR
rst => Temp[29].ACLR
rst => Temp[30].ACLR
rst => Temp[31].ACLR
D[0] => Temp[0].DATAIN
D[1] => Temp[1].DATAIN
D[2] => Temp[2].DATAIN
D[3] => Temp[3].DATAIN
D[4] => Temp[4].DATAIN
D[5] => Temp[5].DATAIN
D[6] => Temp[6].DATAIN
D[7] => Temp[7].DATAIN
D[8] => Temp[8].DATAIN
D[9] => Temp[9].DATAIN
D[10] => Temp[10].DATAIN
D[11] => Temp[11].DATAIN
D[12] => Temp[12].DATAIN
D[13] => Temp[13].DATAIN
D[14] => Temp[14].DATAIN
D[15] => Temp[15].DATAIN
D[16] => Temp[16].DATAIN
D[17] => Temp[17].DATAIN
D[18] => Temp[18].DATAIN
D[19] => Temp[19].DATAIN
D[20] => Temp[20].DATAIN
D[21] => Temp[21].DATAIN
D[22] => Temp[22].DATAIN
D[23] => Temp[23].DATAIN
D[24] => Temp[24].DATAIN
D[25] => Temp[25].DATAIN
D[26] => Temp[26].DATAIN
D[27] => Temp[27].DATAIN
D[28] => Temp[28].DATAIN
D[29] => Temp[29].DATAIN
D[30] => Temp[30].DATAIN
D[31] => Temp[31].DATAIN
Q[0] <= Temp[0].DB_MAX_OUTPUT_PORT_TYPE
Q[1] <= Temp[1].DB_MAX_OUTPUT_PORT_TYPE
Q[2] <= Temp[2].DB_MAX_OUTPUT_PORT_TYPE
Q[3] <= Temp[3].DB_MAX_OUTPUT_PORT_TYPE
Q[4] <= Temp[4].DB_MAX_OUTPUT_PORT_TYPE
Q[5] <= Temp[5].DB_MAX_OUTPUT_PORT_TYPE
Q[6] <= Temp[6].DB_MAX_OUTPUT_PORT_TYPE
Q[7] <= Temp[7].DB_MAX_OUTPUT_PORT_TYPE
Q[8] <= Temp[8].DB_MAX_OUTPUT_PORT_TYPE
Q[9] <= Temp[9].DB_MAX_OUTPUT_PORT_TYPE
Q[10] <= Temp[10].DB_MAX_OUTPUT_PORT_TYPE
Q[11] <= Temp[11].DB_MAX_OUTPUT_PORT_TYPE
Q[12] <= Temp[12].DB_MAX_OUTPUT_PORT_TYPE
Q[13] <= Temp[13].DB_MAX_OUTPUT_PORT_TYPE
Q[14] <= Temp[14].DB_MAX_OUTPUT_PORT_TYPE
Q[15] <= Temp[15].DB_MAX_OUTPUT_PORT_TYPE
Q[16] <= Temp[16].DB_MAX_OUTPUT_PORT_TYPE
Q[17] <= Temp[17].DB_MAX_OUTPUT_PORT_TYPE
Q[18] <= Temp[18].DB_MAX_OUTPUT_PORT_TYPE
Q[19] <= Temp[19].DB_MAX_OUTPUT_PORT_TYPE
Q[20] <= Temp[20].DB_MAX_OUTPUT_PORT_TYPE
Q[21] <= Temp[21].DB_MAX_OUTPUT_PORT_TYPE
Q[22] <= Temp[22].DB_MAX_OUTPUT_PORT_TYPE
Q[23] <= Temp[23].DB_MAX_OUTPUT_PORT_TYPE
Q[24] <= Temp[24].DB_MAX_OUTPUT_PORT_TYPE
Q[25] <= Temp[25].DB_MAX_OUTPUT_PORT_TYPE
Q[26] <= Temp[26].DB_MAX_OUTPUT_PORT_TYPE
Q[27] <= Temp[27].DB_MAX_OUTPUT_PORT_TYPE
Q[28] <= Temp[28].DB_MAX_OUTPUT_PORT_TYPE
Q[29] <= Temp[29].DB_MAX_OUTPUT_PORT_TYPE
Q[30] <= Temp[30].DB_MAX_OUTPUT_PORT_TYPE
Q[31] <= Temp[31].DB_MAX_OUTPUT_PORT_TYPE


|MIPS|mux_2x1:MuxEntradaPC
entrada1[0] => saida.DATAB
entrada1[1] => saida.DATAB
entrada1[2] => saida.DATAB
entrada1[3] => saida.DATAB
entrada1[4] => saida.DATAB
entrada1[5] => saida.DATAB
entrada1[6] => saida.DATAB
entrada1[7] => saida.DATAB
entrada1[8] => saida.DATAB
entrada1[9] => saida.DATAB
entrada1[10] => saida.DATAB
entrada1[11] => saida.DATAB
entrada1[12] => saida.DATAB
entrada1[13] => saida.DATAB
entrada1[14] => saida.DATAB
entrada1[15] => saida.DATAB
entrada1[16] => saida.DATAB
entrada1[17] => saida.DATAB
entrada1[18] => saida.DATAB
entrada1[19] => saida.DATAB
entrada1[20] => saida.DATAB
entrada1[21] => saida.DATAB
entrada1[22] => saida.DATAB
entrada1[23] => saida.DATAB
entrada1[24] => saida.DATAB
entrada1[25] => saida.DATAB
entrada1[26] => saida.DATAB
entrada1[27] => saida.DATAB
entrada1[28] => saida.DATAB
entrada1[29] => saida.DATAB
entrada1[30] => saida.DATAB
entrada1[31] => saida.DATAB
entrada2[0] => saida.DATAA
entrada2[1] => saida.DATAA
entrada2[2] => saida.DATAA
entrada2[3] => saida.DATAA
entrada2[4] => saida.DATAA
entrada2[5] => saida.DATAA
entrada2[6] => saida.DATAA
entrada2[7] => saida.DATAA
entrada2[8] => saida.DATAA
entrada2[9] => saida.DATAA
entrada2[10] => saida.DATAA
entrada2[11] => saida.DATAA
entrada2[12] => saida.DATAA
entrada2[13] => saida.DATAA
entrada2[14] => saida.DATAA
entrada2[15] => saida.DATAA
entrada2[16] => saida.DATAA
entrada2[17] => saida.DATAA
entrada2[18] => saida.DATAA
entrada2[19] => saida.DATAA
entrada2[20] => saida.DATAA
entrada2[21] => saida.DATAA
entrada2[22] => saida.DATAA
entrada2[23] => saida.DATAA
entrada2[24] => saida.DATAA
entrada2[25] => saida.DATAA
entrada2[26] => saida.DATAA
entrada2[27] => saida.DATAA
entrada2[28] => saida.DATAA
entrada2[29] => saida.DATAA
entrada2[30] => saida.DATAA
entrada2[31] => saida.DATAA
sel => saida.OUTPUTSELECT
sel => saida.OUTPUTSELECT
sel => saida.OUTPUTSELECT
sel => saida.OUTPUTSELECT
sel => saida.OUTPUTSELECT
sel => saida.OUTPUTSELECT
sel => saida.OUTPUTSELECT
sel => saida.OUTPUTSELECT
sel => saida.OUTPUTSELECT
sel => saida.OUTPUTSELECT
sel => saida.OUTPUTSELECT
sel => saida.OUTPUTSELECT
sel => saida.OUTPUTSELECT
sel => saida.OUTPUTSELECT
sel => saida.OUTPUTSELECT
sel => saida.OUTPUTSELECT
sel => saida.OUTPUTSELECT
sel => saida.OUTPUTSELECT
sel => saida.OUTPUTSELECT
sel => saida.OUTPUTSELECT
sel => saida.OUTPUTSELECT
sel => saida.OUTPUTSELECT
sel => saida.OUTPUTSELECT
sel => saida.OUTPUTSELECT
sel => saida.OUTPUTSELECT
sel => saida.OUTPUTSELECT
sel => saida.OUTPUTSELECT
sel => saida.OUTPUTSELECT
sel => saida.OUTPUTSELECT
sel => saida.OUTPUTSELECT
sel => saida.OUTPUTSELECT
sel => saida.OUTPUTSELECT
saida[0] <= saida.DB_MAX_OUTPUT_PORT_TYPE
saida[1] <= saida.DB_MAX_OUTPUT_PORT_TYPE
saida[2] <= saida.DB_MAX_OUTPUT_PORT_TYPE
saida[3] <= saida.DB_MAX_OUTPUT_PORT_TYPE
saida[4] <= saida.DB_MAX_OUTPUT_PORT_TYPE
saida[5] <= saida.DB_MAX_OUTPUT_PORT_TYPE
saida[6] <= saida.DB_MAX_OUTPUT_PORT_TYPE
saida[7] <= saida.DB_MAX_OUTPUT_PORT_TYPE
saida[8] <= saida.DB_MAX_OUTPUT_PORT_TYPE
saida[9] <= saida.DB_MAX_OUTPUT_PORT_TYPE
saida[10] <= saida.DB_MAX_OUTPUT_PORT_TYPE
saida[11] <= saida.DB_MAX_OUTPUT_PORT_TYPE
saida[12] <= saida.DB_MAX_OUTPUT_PORT_TYPE
saida[13] <= saida.DB_MAX_OUTPUT_PORT_TYPE
saida[14] <= saida.DB_MAX_OUTPUT_PORT_TYPE
saida[15] <= saida.DB_MAX_OUTPUT_PORT_TYPE
saida[16] <= saida.DB_MAX_OUTPUT_PORT_TYPE
saida[17] <= saida.DB_MAX_OUTPUT_PORT_TYPE
saida[18] <= saida.DB_MAX_OUTPUT_PORT_TYPE
saida[19] <= saida.DB_MAX_OUTPUT_PORT_TYPE
saida[20] <= saida.DB_MAX_OUTPUT_PORT_TYPE
saida[21] <= saida.DB_MAX_OUTPUT_PORT_TYPE
saida[22] <= saida.DB_MAX_OUTPUT_PORT_TYPE
saida[23] <= saida.DB_MAX_OUTPUT_PORT_TYPE
saida[24] <= saida.DB_MAX_OUTPUT_PORT_TYPE
saida[25] <= saida.DB_MAX_OUTPUT_PORT_TYPE
saida[26] <= saida.DB_MAX_OUTPUT_PORT_TYPE
saida[27] <= saida.DB_MAX_OUTPUT_PORT_TYPE
saida[28] <= saida.DB_MAX_OUTPUT_PORT_TYPE
saida[29] <= saida.DB_MAX_OUTPUT_PORT_TYPE
saida[30] <= saida.DB_MAX_OUTPUT_PORT_TYPE
saida[31] <= saida.DB_MAX_OUTPUT_PORT_TYPE


|MIPS|adderAB:PCSoma4
A[0] => Add0.IN32
A[1] => Add0.IN31
A[2] => Add0.IN30
A[3] => Add0.IN29
A[4] => Add0.IN28
A[5] => Add0.IN27
A[6] => Add0.IN26
A[7] => Add0.IN25
A[8] => Add0.IN24
A[9] => Add0.IN23
A[10] => Add0.IN22
A[11] => Add0.IN21
A[12] => Add0.IN20
A[13] => Add0.IN19
A[14] => Add0.IN18
A[15] => Add0.IN17
A[16] => Add0.IN16
A[17] => Add0.IN15
A[18] => Add0.IN14
A[19] => Add0.IN13
A[20] => Add0.IN12
A[21] => Add0.IN11
A[22] => Add0.IN10
A[23] => Add0.IN9
A[24] => Add0.IN8
A[25] => Add0.IN7
A[26] => Add0.IN6
A[27] => Add0.IN5
A[28] => Add0.IN4
A[29] => Add0.IN3
A[30] => Add0.IN2
A[31] => Add0.IN1
B[0] => Add0.IN64
B[1] => Add0.IN63
B[2] => Add0.IN62
B[3] => Add0.IN61
B[4] => Add0.IN60
B[5] => Add0.IN59
B[6] => Add0.IN58
B[7] => Add0.IN57
B[8] => Add0.IN56
B[9] => Add0.IN55
B[10] => Add0.IN54
B[11] => Add0.IN53
B[12] => Add0.IN52
B[13] => Add0.IN51
B[14] => Add0.IN50
B[15] => Add0.IN49
B[16] => Add0.IN48
B[17] => Add0.IN47
B[18] => Add0.IN46
B[19] => Add0.IN45
B[20] => Add0.IN44
B[21] => Add0.IN43
B[22] => Add0.IN42
B[23] => Add0.IN41
B[24] => Add0.IN40
B[25] => Add0.IN39
B[26] => Add0.IN38
B[27] => Add0.IN37
B[28] => Add0.IN36
B[29] => Add0.IN35
B[30] => Add0.IN34
B[31] => Add0.IN33
S[0] <= Add0.DB_MAX_OUTPUT_PORT_TYPE
S[1] <= Add0.DB_MAX_OUTPUT_PORT_TYPE
S[2] <= Add0.DB_MAX_OUTPUT_PORT_TYPE
S[3] <= Add0.DB_MAX_OUTPUT_PORT_TYPE
S[4] <= Add0.DB_MAX_OUTPUT_PORT_TYPE
S[5] <= Add0.DB_MAX_OUTPUT_PORT_TYPE
S[6] <= Add0.DB_MAX_OUTPUT_PORT_TYPE
S[7] <= Add0.DB_MAX_OUTPUT_PORT_TYPE
S[8] <= Add0.DB_MAX_OUTPUT_PORT_TYPE
S[9] <= Add0.DB_MAX_OUTPUT_PORT_TYPE
S[10] <= Add0.DB_MAX_OUTPUT_PORT_TYPE
S[11] <= Add0.DB_MAX_OUTPUT_PORT_TYPE
S[12] <= Add0.DB_MAX_OUTPUT_PORT_TYPE
S[13] <= Add0.DB_MAX_OUTPUT_PORT_TYPE
S[14] <= Add0.DB_MAX_OUTPUT_PORT_TYPE
S[15] <= Add0.DB_MAX_OUTPUT_PORT_TYPE
S[16] <= Add0.DB_MAX_OUTPUT_PORT_TYPE
S[17] <= Add0.DB_MAX_OUTPUT_PORT_TYPE
S[18] <= Add0.DB_MAX_OUTPUT_PORT_TYPE
S[19] <= Add0.DB_MAX_OUTPUT_PORT_TYPE
S[20] <= Add0.DB_MAX_OUTPUT_PORT_TYPE
S[21] <= Add0.DB_MAX_OUTPUT_PORT_TYPE
S[22] <= Add0.DB_MAX_OUTPUT_PORT_TYPE
S[23] <= Add0.DB_MAX_OUTPUT_PORT_TYPE
S[24] <= Add0.DB_MAX_OUTPUT_PORT_TYPE
S[25] <= Add0.DB_MAX_OUTPUT_PORT_TYPE
S[26] <= Add0.DB_MAX_OUTPUT_PORT_TYPE
S[27] <= Add0.DB_MAX_OUTPUT_PORT_TYPE
S[28] <= Add0.DB_MAX_OUTPUT_PORT_TYPE
S[29] <= Add0.DB_MAX_OUTPUT_PORT_TYPE
S[30] <= Add0.DB_MAX_OUTPUT_PORT_TYPE
S[31] <= Add0.DB_MAX_OUTPUT_PORT_TYPE


|MIPS|memInst2:memInstrucao
data[0] => ~NO_FANOUT~
data[1] => ~NO_FANOUT~
data[2] => ~NO_FANOUT~
data[3] => ~NO_FANOUT~
data[4] => ~NO_FANOUT~
data[5] => ~NO_FANOUT~
data[6] => ~NO_FANOUT~
data[7] => ~NO_FANOUT~
data[8] => ~NO_FANOUT~
data[9] => ~NO_FANOUT~
data[10] => ~NO_FANOUT~
data[11] => ~NO_FANOUT~
data[12] => ~NO_FANOUT~
data[13] => ~NO_FANOUT~
data[14] => ~NO_FANOUT~
data[15] => ~NO_FANOUT~
data[16] => ~NO_FANOUT~
data[17] => ~NO_FANOUT~
data[18] => ~NO_FANOUT~
data[19] => ~NO_FANOUT~
data[20] => ~NO_FANOUT~
data[21] => ~NO_FANOUT~
data[22] => ~NO_FANOUT~
data[23] => ~NO_FANOUT~
data[24] => ~NO_FANOUT~
data[25] => ~NO_FANOUT~
data[26] => ~NO_FANOUT~
data[27] => ~NO_FANOUT~
data[28] => ~NO_FANOUT~
data[29] => ~NO_FANOUT~
data[30] => ~NO_FANOUT~
data[31] => ~NO_FANOUT~
address[0] => Mux0.IN1033
address[0] => Mux1.IN1033
address[0] => Mux2.IN1033
address[0] => Mux3.IN1033
address[0] => Mux4.IN1033
address[0] => Mux5.IN1033
address[0] => Mux6.IN1033
address[0] => Mux7.IN1033
address[0] => Mux8.IN1033
address[0] => Mux9.IN1033
address[0] => Mux10.IN1033
address[0] => Mux11.IN1033
address[0] => Mux12.IN1033
address[0] => Mux13.IN1033
address[0] => Mux14.IN1033
address[0] => Mux15.IN1033
address[0] => Mux16.IN1033
address[1] => Mux0.IN1032
address[1] => Mux1.IN1032
address[1] => Mux2.IN1032
address[1] => Mux3.IN1032
address[1] => Mux4.IN1032
address[1] => Mux5.IN1032
address[1] => Mux6.IN1032
address[1] => Mux7.IN1032
address[1] => Mux8.IN1032
address[1] => Mux9.IN1032
address[1] => Mux10.IN1032
address[1] => Mux11.IN1032
address[1] => Mux12.IN1032
address[1] => Mux13.IN1032
address[1] => Mux14.IN1032
address[1] => Mux15.IN1032
address[1] => Mux16.IN1032
address[2] => Mux0.IN1031
address[2] => Mux1.IN1031
address[2] => Mux2.IN1031
address[2] => Mux3.IN1031
address[2] => Mux4.IN1031
address[2] => Mux5.IN1031
address[2] => Mux6.IN1031
address[2] => Mux7.IN1031
address[2] => Mux8.IN1031
address[2] => Mux9.IN1031
address[2] => Mux10.IN1031
address[2] => Mux11.IN1031
address[2] => Mux12.IN1031
address[2] => Mux13.IN1031
address[2] => Mux14.IN1031
address[2] => Mux15.IN1031
address[2] => Mux16.IN1031
address[3] => Mux0.IN1030
address[3] => Mux1.IN1030
address[3] => Mux2.IN1030
address[3] => Mux3.IN1030
address[3] => Mux4.IN1030
address[3] => Mux5.IN1030
address[3] => Mux6.IN1030
address[3] => Mux7.IN1030
address[3] => Mux8.IN1030
address[3] => Mux9.IN1030
address[3] => Mux10.IN1030
address[3] => Mux11.IN1030
address[3] => Mux12.IN1030
address[3] => Mux13.IN1030
address[3] => Mux14.IN1030
address[3] => Mux15.IN1030
address[3] => Mux16.IN1030
address[4] => Mux0.IN1029
address[4] => Mux1.IN1029
address[4] => Mux2.IN1029
address[4] => Mux3.IN1029
address[4] => Mux4.IN1029
address[4] => Mux5.IN1029
address[4] => Mux6.IN1029
address[4] => Mux7.IN1029
address[4] => Mux8.IN1029
address[4] => Mux9.IN1029
address[4] => Mux10.IN1029
address[4] => Mux11.IN1029
address[4] => Mux12.IN1029
address[4] => Mux13.IN1029
address[4] => Mux14.IN1029
address[4] => Mux15.IN1029
address[4] => Mux16.IN1029
address[5] => Mux0.IN1028
address[5] => Mux1.IN1028
address[5] => Mux2.IN1028
address[5] => Mux3.IN1028
address[5] => Mux4.IN1028
address[5] => Mux5.IN1028
address[5] => Mux6.IN1028
address[5] => Mux7.IN1028
address[5] => Mux8.IN1028
address[5] => Mux9.IN1028
address[5] => Mux10.IN1028
address[5] => Mux11.IN1028
address[5] => Mux12.IN1028
address[5] => Mux13.IN1028
address[5] => Mux14.IN1028
address[5] => Mux15.IN1028
address[5] => Mux16.IN1028
address[6] => Mux0.IN1027
address[6] => Mux1.IN1027
address[6] => Mux2.IN1027
address[6] => Mux3.IN1027
address[6] => Mux4.IN1027
address[6] => Mux5.IN1027
address[6] => Mux6.IN1027
address[6] => Mux7.IN1027
address[6] => Mux8.IN1027
address[6] => Mux9.IN1027
address[6] => Mux10.IN1027
address[6] => Mux11.IN1027
address[6] => Mux12.IN1027
address[6] => Mux13.IN1027
address[6] => Mux14.IN1027
address[6] => Mux15.IN1027
address[6] => Mux16.IN1027
address[7] => Mux0.IN1026
address[7] => Mux1.IN1026
address[7] => Mux2.IN1026
address[7] => Mux3.IN1026
address[7] => Mux4.IN1026
address[7] => Mux5.IN1026
address[7] => Mux6.IN1026
address[7] => Mux7.IN1026
address[7] => Mux8.IN1026
address[7] => Mux9.IN1026
address[7] => Mux10.IN1026
address[7] => Mux11.IN1026
address[7] => Mux12.IN1026
address[7] => Mux13.IN1026
address[7] => Mux14.IN1026
address[7] => Mux15.IN1026
address[7] => Mux16.IN1026
address[8] => Mux0.IN1025
address[8] => Mux1.IN1025
address[8] => Mux2.IN1025
address[8] => Mux3.IN1025
address[8] => Mux4.IN1025
address[8] => Mux5.IN1025
address[8] => Mux6.IN1025
address[8] => Mux7.IN1025
address[8] => Mux8.IN1025
address[8] => Mux9.IN1025
address[8] => Mux10.IN1025
address[8] => Mux11.IN1025
address[8] => Mux12.IN1025
address[8] => Mux13.IN1025
address[8] => Mux14.IN1025
address[8] => Mux15.IN1025
address[8] => Mux16.IN1025
address[9] => Mux0.IN1024
address[9] => Mux1.IN1024
address[9] => Mux2.IN1024
address[9] => Mux3.IN1024
address[9] => Mux4.IN1024
address[9] => Mux5.IN1024
address[9] => Mux6.IN1024
address[9] => Mux7.IN1024
address[9] => Mux8.IN1024
address[9] => Mux9.IN1024
address[9] => Mux10.IN1024
address[9] => Mux11.IN1024
address[9] => Mux12.IN1024
address[9] => Mux13.IN1024
address[9] => Mux14.IN1024
address[9] => Mux15.IN1024
address[9] => Mux16.IN1024
clock => ~NO_FANOUT~
wren => ~NO_FANOUT~
q[0] <= Mux16.DB_MAX_OUTPUT_PORT_TYPE
q[1] <= Mux15.DB_MAX_OUTPUT_PORT_TYPE
q[2] <= Mux14.DB_MAX_OUTPUT_PORT_TYPE
q[3] <= <GND>
q[4] <= <GND>
q[5] <= Mux13.DB_MAX_OUTPUT_PORT_TYPE
q[6] <= <GND>
q[7] <= <GND>
q[8] <= <GND>
q[9] <= <GND>
q[10] <= <GND>
q[11] <= Mux12.DB_MAX_OUTPUT_PORT_TYPE
q[12] <= Mux11.DB_MAX_OUTPUT_PORT_TYPE
q[13] <= <GND>
q[14] <= <GND>
q[15] <= Mux10.DB_MAX_OUTPUT_PORT_TYPE
q[16] <= Mux9.DB_MAX_OUTPUT_PORT_TYPE
q[17] <= Mux8.DB_MAX_OUTPUT_PORT_TYPE
q[18] <= Mux7.DB_MAX_OUTPUT_PORT_TYPE
q[19] <= <GND>
q[20] <= <GND>
q[21] <= Mux6.DB_MAX_OUTPUT_PORT_TYPE
q[22] <= Mux5.DB_MAX_OUTPUT_PORT_TYPE
q[23] <= <GND>
q[24] <= <GND>
q[25] <= <GND>
q[26] <= Mux4.DB_MAX_OUTPUT_PORT_TYPE
q[27] <= Mux3.DB_MAX_OUTPUT_PORT_TYPE
q[28] <= Mux2.DB_MAX_OUTPUT_PORT_TYPE
q[29] <= Mux1.DB_MAX_OUTPUT_PORT_TYPE
q[30] <= <GND>
q[31] <= Mux0.DB_MAX_OUTPUT_PORT_TYPE


|MIPS|flipflop:PIPE1
clk => Temp[0].CLK
clk => Temp[1].CLK
clk => Temp[2].CLK
clk => Temp[3].CLK
clk => Temp[4].CLK
clk => Temp[5].CLK
clk => Temp[6].CLK
clk => Temp[7].CLK
clk => Temp[8].CLK
clk => Temp[9].CLK
clk => Temp[10].CLK
clk => Temp[11].CLK
clk => Temp[12].CLK
clk => Temp[13].CLK
clk => Temp[14].CLK
clk => Temp[15].CLK
clk => Temp[16].CLK
clk => Temp[17].CLK
clk => Temp[18].CLK
clk => Temp[19].CLK
clk => Temp[20].CLK
clk => Temp[21].CLK
clk => Temp[22].CLK
clk => Temp[23].CLK
clk => Temp[24].CLK
clk => Temp[25].CLK
clk => Temp[26].CLK
clk => Temp[27].CLK
clk => Temp[28].CLK
clk => Temp[29].CLK
clk => Temp[30].CLK
clk => Temp[31].CLK
clk => Temp[32].CLK
clk => Temp[33].CLK
clk => Temp[34].CLK
clk => Temp[35].CLK
clk => Temp[36].CLK
clk => Temp[37].CLK
clk => Temp[38].CLK
clk => Temp[39].CLK
clk => Temp[40].CLK
clk => Temp[41].CLK
clk => Temp[42].CLK
clk => Temp[43].CLK
clk => Temp[44].CLK
clk => Temp[45].CLK
clk => Temp[46].CLK
clk => Temp[47].CLK
clk => Temp[48].CLK
clk => Temp[49].CLK
clk => Temp[50].CLK
clk => Temp[51].CLK
clk => Temp[52].CLK
clk => Temp[53].CLK
clk => Temp[54].CLK
clk => Temp[55].CLK
clk => Temp[56].CLK
clk => Temp[57].CLK
clk => Temp[58].CLK
clk => Temp[59].CLK
clk => Temp[60].CLK
clk => Temp[61].CLK
clk => Temp[62].CLK
clk => Temp[63].CLK
rst => Temp[0].ACLR
rst => Temp[1].ACLR
rst => Temp[2].ACLR
rst => Temp[3].ACLR
rst => Temp[4].ACLR
rst => Temp[5].ACLR
rst => Temp[6].ACLR
rst => Temp[7].ACLR
rst => Temp[8].ACLR
rst => Temp[9].ACLR
rst => Temp[10].ACLR
rst => Temp[11].ACLR
rst => Temp[12].ACLR
rst => Temp[13].ACLR
rst => Temp[14].ACLR
rst => Temp[15].ACLR
rst => Temp[16].ACLR
rst => Temp[17].ACLR
rst => Temp[18].ACLR
rst => Temp[19].ACLR
rst => Temp[20].ACLR
rst => Temp[21].ACLR
rst => Temp[22].ACLR
rst => Temp[23].ACLR
rst => Temp[24].ACLR
rst => Temp[25].ACLR
rst => Temp[26].ACLR
rst => Temp[27].ACLR
rst => Temp[28].ACLR
rst => Temp[29].ACLR
rst => Temp[30].ACLR
rst => Temp[31].ACLR
rst => Temp[32].ACLR
rst => Temp[33].ACLR
rst => Temp[34].ACLR
rst => Temp[35].ACLR
rst => Temp[36].ACLR
rst => Temp[37].ACLR
rst => Temp[38].ACLR
rst => Temp[39].ACLR
rst => Temp[40].ACLR
rst => Temp[41].ACLR
rst => Temp[42].ACLR
rst => Temp[43].ACLR
rst => Temp[44].ACLR
rst => Temp[45].ACLR
rst => Temp[46].ACLR
rst => Temp[47].ACLR
rst => Temp[48].ACLR
rst => Temp[49].ACLR
rst => Temp[50].ACLR
rst => Temp[51].ACLR
rst => Temp[52].ACLR
rst => Temp[53].ACLR
rst => Temp[54].ACLR
rst => Temp[55].ACLR
rst => Temp[56].ACLR
rst => Temp[57].ACLR
rst => Temp[58].ACLR
rst => Temp[59].ACLR
rst => Temp[60].ACLR
rst => Temp[61].ACLR
rst => Temp[62].ACLR
rst => Temp[63].ACLR
D[0] => Temp[0].DATAIN
D[1] => Temp[1].DATAIN
D[2] => Temp[2].DATAIN
D[3] => Temp[3].DATAIN
D[4] => Temp[4].DATAIN
D[5] => Temp[5].DATAIN
D[6] => Temp[6].DATAIN
D[7] => Temp[7].DATAIN
D[8] => Temp[8].DATAIN
D[9] => Temp[9].DATAIN
D[10] => Temp[10].DATAIN
D[11] => Temp[11].DATAIN
D[12] => Temp[12].DATAIN
D[13] => Temp[13].DATAIN
D[14] => Temp[14].DATAIN
D[15] => Temp[15].DATAIN
D[16] => Temp[16].DATAIN
D[17] => Temp[17].DATAIN
D[18] => Temp[18].DATAIN
D[19] => Temp[19].DATAIN
D[20] => Temp[20].DATAIN
D[21] => Temp[21].DATAIN
D[22] => Temp[22].DATAIN
D[23] => Temp[23].DATAIN
D[24] => Temp[24].DATAIN
D[25] => Temp[25].DATAIN
D[26] => Temp[26].DATAIN
D[27] => Temp[27].DATAIN
D[28] => Temp[28].DATAIN
D[29] => Temp[29].DATAIN
D[30] => Temp[30].DATAIN
D[31] => Temp[31].DATAIN
D[32] => Temp[32].DATAIN
D[33] => Temp[33].DATAIN
D[34] => Temp[34].DATAIN
D[35] => Temp[35].DATAIN
D[36] => Temp[36].DATAIN
D[37] => Temp[37].DATAIN
D[38] => Temp[38].DATAIN
D[39] => Temp[39].DATAIN
D[40] => Temp[40].DATAIN
D[41] => Temp[41].DATAIN
D[42] => Temp[42].DATAIN
D[43] => Temp[43].DATAIN
D[44] => Temp[44].DATAIN
D[45] => Temp[45].DATAIN
D[46] => Temp[46].DATAIN
D[47] => Temp[47].DATAIN
D[48] => Temp[48].DATAIN
D[49] => Temp[49].DATAIN
D[50] => Temp[50].DATAIN
D[51] => Temp[51].DATAIN
D[52] => Temp[52].DATAIN
D[53] => Temp[53].DATAIN
D[54] => Temp[54].DATAIN
D[55] => Temp[55].DATAIN
D[56] => Temp[56].DATAIN
D[57] => Temp[57].DATAIN
D[58] => Temp[58].DATAIN
D[59] => Temp[59].DATAIN
D[60] => Temp[60].DATAIN
D[61] => Temp[61].DATAIN
D[62] => Temp[62].DATAIN
D[63] => Temp[63].DATAIN
Q[0] <= Temp[0].DB_MAX_OUTPUT_PORT_TYPE
Q[1] <= Temp[1].DB_MAX_OUTPUT_PORT_TYPE
Q[2] <= Temp[2].DB_MAX_OUTPUT_PORT_TYPE
Q[3] <= Temp[3].DB_MAX_OUTPUT_PORT_TYPE
Q[4] <= Temp[4].DB_MAX_OUTPUT_PORT_TYPE
Q[5] <= Temp[5].DB_MAX_OUTPUT_PORT_TYPE
Q[6] <= Temp[6].DB_MAX_OUTPUT_PORT_TYPE
Q[7] <= Temp[7].DB_MAX_OUTPUT_PORT_TYPE
Q[8] <= Temp[8].DB_MAX_OUTPUT_PORT_TYPE
Q[9] <= Temp[9].DB_MAX_OUTPUT_PORT_TYPE
Q[10] <= Temp[10].DB_MAX_OUTPUT_PORT_TYPE
Q[11] <= Temp[11].DB_MAX_OUTPUT_PORT_TYPE
Q[12] <= Temp[12].DB_MAX_OUTPUT_PORT_TYPE
Q[13] <= Temp[13].DB_MAX_OUTPUT_PORT_TYPE
Q[14] <= Temp[14].DB_MAX_OUTPUT_PORT_TYPE
Q[15] <= Temp[15].DB_MAX_OUTPUT_PORT_TYPE
Q[16] <= Temp[16].DB_MAX_OUTPUT_PORT_TYPE
Q[17] <= Temp[17].DB_MAX_OUTPUT_PORT_TYPE
Q[18] <= Temp[18].DB_MAX_OUTPUT_PORT_TYPE
Q[19] <= Temp[19].DB_MAX_OUTPUT_PORT_TYPE
Q[20] <= Temp[20].DB_MAX_OUTPUT_PORT_TYPE
Q[21] <= Temp[21].DB_MAX_OUTPUT_PORT_TYPE
Q[22] <= Temp[22].DB_MAX_OUTPUT_PORT_TYPE
Q[23] <= Temp[23].DB_MAX_OUTPUT_PORT_TYPE
Q[24] <= Temp[24].DB_MAX_OUTPUT_PORT_TYPE
Q[25] <= Temp[25].DB_MAX_OUTPUT_PORT_TYPE
Q[26] <= Temp[26].DB_MAX_OUTPUT_PORT_TYPE
Q[27] <= Temp[27].DB_MAX_OUTPUT_PORT_TYPE
Q[28] <= Temp[28].DB_MAX_OUTPUT_PORT_TYPE
Q[29] <= Temp[29].DB_MAX_OUTPUT_PORT_TYPE
Q[30] <= Temp[30].DB_MAX_OUTPUT_PORT_TYPE
Q[31] <= Temp[31].DB_MAX_OUTPUT_PORT_TYPE
Q[32] <= Temp[32].DB_MAX_OUTPUT_PORT_TYPE
Q[33] <= Temp[33].DB_MAX_OUTPUT_PORT_TYPE
Q[34] <= Temp[34].DB_MAX_OUTPUT_PORT_TYPE
Q[35] <= Temp[35].DB_MAX_OUTPUT_PORT_TYPE
Q[36] <= Temp[36].DB_MAX_OUTPUT_PORT_TYPE
Q[37] <= Temp[37].DB_MAX_OUTPUT_PORT_TYPE
Q[38] <= Temp[38].DB_MAX_OUTPUT_PORT_TYPE
Q[39] <= Temp[39].DB_MAX_OUTPUT_PORT_TYPE
Q[40] <= Temp[40].DB_MAX_OUTPUT_PORT_TYPE
Q[41] <= Temp[41].DB_MAX_OUTPUT_PORT_TYPE
Q[42] <= Temp[42].DB_MAX_OUTPUT_PORT_TYPE
Q[43] <= Temp[43].DB_MAX_OUTPUT_PORT_TYPE
Q[44] <= Temp[44].DB_MAX_OUTPUT_PORT_TYPE
Q[45] <= Temp[45].DB_MAX_OUTPUT_PORT_TYPE
Q[46] <= Temp[46].DB_MAX_OUTPUT_PORT_TYPE
Q[47] <= Temp[47].DB_MAX_OUTPUT_PORT_TYPE
Q[48] <= Temp[48].DB_MAX_OUTPUT_PORT_TYPE
Q[49] <= Temp[49].DB_MAX_OUTPUT_PORT_TYPE
Q[50] <= Temp[50].DB_MAX_OUTPUT_PORT_TYPE
Q[51] <= Temp[51].DB_MAX_OUTPUT_PORT_TYPE
Q[52] <= Temp[52].DB_MAX_OUTPUT_PORT_TYPE
Q[53] <= Temp[53].DB_MAX_OUTPUT_PORT_TYPE
Q[54] <= Temp[54].DB_MAX_OUTPUT_PORT_TYPE
Q[55] <= Temp[55].DB_MAX_OUTPUT_PORT_TYPE
Q[56] <= Temp[56].DB_MAX_OUTPUT_PORT_TYPE
Q[57] <= Temp[57].DB_MAX_OUTPUT_PORT_TYPE
Q[58] <= Temp[58].DB_MAX_OUTPUT_PORT_TYPE
Q[59] <= Temp[59].DB_MAX_OUTPUT_PORT_TYPE
Q[60] <= Temp[60].DB_MAX_OUTPUT_PORT_TYPE
Q[61] <= Temp[61].DB_MAX_OUTPUT_PORT_TYPE
Q[62] <= Temp[62].DB_MAX_OUTPUT_PORT_TYPE
Q[63] <= Temp[63].DB_MAX_OUTPUT_PORT_TYPE


|MIPS|controle:CONTROLADOR
opcode[0] => Mux0.IN36
opcode[0] => Mux1.IN69
opcode[0] => Mux2.IN36
opcode[0] => Mux3.IN69
opcode[0] => Mux4.IN69
opcode[0] => Mux5.IN69
opcode[0] => Mux6.IN69
opcode[0] => Mux7.IN69
opcode[0] => Mux8.IN69
opcode[1] => Mux1.IN68
opcode[1] => Mux2.IN35
opcode[1] => Mux3.IN68
opcode[1] => Mux4.IN68
opcode[1] => Mux5.IN68
opcode[1] => Mux6.IN68
opcode[1] => Mux7.IN68
opcode[1] => Mux8.IN68
opcode[2] => Mux0.IN35
opcode[2] => Mux1.IN67
opcode[2] => Mux2.IN34
opcode[2] => Mux3.IN67
opcode[2] => Mux4.IN67
opcode[2] => Mux5.IN67
opcode[2] => Mux6.IN67
opcode[2] => Mux7.IN67
opcode[2] => Mux8.IN67
opcode[3] => Mux0.IN34
opcode[3] => Mux1.IN66
opcode[3] => Mux3.IN66
opcode[3] => Mux4.IN66
opcode[3] => Mux5.IN66
opcode[3] => Mux6.IN66
opcode[3] => Mux7.IN66
opcode[3] => Mux8.IN66
opcode[4] => Mux0.IN33
opcode[4] => Mux1.IN65
opcode[4] => Mux2.IN33
opcode[4] => Mux3.IN65
opcode[4] => Mux4.IN65
opcode[4] => Mux5.IN65
opcode[4] => Mux6.IN65
opcode[4] => Mux7.IN65
opcode[4] => Mux8.IN65
opcode[5] => Mux0.IN32
opcode[5] => Mux1.IN64
opcode[5] => Mux2.IN32
opcode[5] => Mux3.IN64
opcode[5] => Mux4.IN64
opcode[5] => Mux5.IN64
opcode[5] => Mux6.IN64
opcode[5] => Mux7.IN64
opcode[5] => Mux8.IN64
operacaoUla[0] <= Mux8.DB_MAX_OUTPUT_PORT_TYPE
operacaoUla[1] <= Mux7.DB_MAX_OUTPUT_PORT_TYPE
RegWrite <= Mux5.DB_MAX_OUTPUT_PORT_TYPE
MemToReg <= Mux2.DB_MAX_OUTPUT_PORT_TYPE
AluSrc <= Mux1.DB_MAX_OUTPUT_PORT_TYPE
MemWrite <= Mux4.DB_MAX_OUTPUT_PORT_TYPE
MemRead <= Mux3.DB_MAX_OUTPUT_PORT_TYPE
Branch <= Mux6.DB_MAX_OUTPUT_PORT_TYPE
RegDst <= Mux0.DB_MAX_OUTPUT_PORT_TYPE


|MIPS|RegBank:REGISSTRADORES
WriteReg[0] => RegN:Bank:0:RegBankx.entrada[0]
WriteReg[0] => RegN:Bank:1:RegBankx.entrada[0]
WriteReg[0] => RegN:Bank:2:RegBankx.entrada[0]
WriteReg[0] => RegN:Bank:3:RegBankx.entrada[0]
WriteReg[0] => RegN:Bank:4:RegBankx.entrada[0]
WriteReg[0] => RegN:Bank:5:RegBankx.entrada[0]
WriteReg[0] => RegN:Bank:6:RegBankx.entrada[0]
WriteReg[0] => RegN:Bank:7:RegBankx.entrada[0]
WriteReg[0] => RegN:Bank:8:RegBankx.entrada[0]
WriteReg[0] => RegN:Bank:9:RegBankx.entrada[0]
WriteReg[0] => RegN:Bank:10:RegBankx.entrada[0]
WriteReg[0] => RegN:Bank:11:RegBankx.entrada[0]
WriteReg[0] => RegN:Bank:12:RegBankx.entrada[0]
WriteReg[0] => RegN:Bank:13:RegBankx.entrada[0]
WriteReg[0] => RegN:Bank:14:RegBankx.entrada[0]
WriteReg[0] => RegN:Bank:15:RegBankx.entrada[0]
WriteReg[0] => RegN:Bank:16:RegBankx.entrada[0]
WriteReg[0] => RegN:Bank:17:RegBankx.entrada[0]
WriteReg[0] => RegN:Bank:18:RegBankx.entrada[0]
WriteReg[0] => RegN:Bank:19:RegBankx.entrada[0]
WriteReg[0] => RegN:Bank:20:RegBankx.entrada[0]
WriteReg[0] => RegN:Bank:21:RegBankx.entrada[0]
WriteReg[0] => RegN:Bank:22:RegBankx.entrada[0]
WriteReg[0] => RegN:Bank:23:RegBankx.entrada[0]
WriteReg[0] => RegN:Bank:24:RegBankx.entrada[0]
WriteReg[0] => RegN:Bank:25:RegBankx.entrada[0]
WriteReg[0] => RegN:Bank:26:RegBankx.entrada[0]
WriteReg[0] => RegN:Bank:27:RegBankx.entrada[0]
WriteReg[0] => RegN:Bank:28:RegBankx.entrada[0]
WriteReg[0] => RegN:Bank:29:RegBankx.entrada[0]
WriteReg[0] => RegN:Bank:30:RegBankx.entrada[0]
WriteReg[0] => RegN:Bank:31:RegBankx.entrada[0]
WriteReg[1] => RegN:Bank:0:RegBankx.entrada[1]
WriteReg[1] => RegN:Bank:1:RegBankx.entrada[1]
WriteReg[1] => RegN:Bank:2:RegBankx.entrada[1]
WriteReg[1] => RegN:Bank:3:RegBankx.entrada[1]
WriteReg[1] => RegN:Bank:4:RegBankx.entrada[1]
WriteReg[1] => RegN:Bank:5:RegBankx.entrada[1]
WriteReg[1] => RegN:Bank:6:RegBankx.entrada[1]
WriteReg[1] => RegN:Bank:7:RegBankx.entrada[1]
WriteReg[1] => RegN:Bank:8:RegBankx.entrada[1]
WriteReg[1] => RegN:Bank:9:RegBankx.entrada[1]
WriteReg[1] => RegN:Bank:10:RegBankx.entrada[1]
WriteReg[1] => RegN:Bank:11:RegBankx.entrada[1]
WriteReg[1] => RegN:Bank:12:RegBankx.entrada[1]
WriteReg[1] => RegN:Bank:13:RegBankx.entrada[1]
WriteReg[1] => RegN:Bank:14:RegBankx.entrada[1]
WriteReg[1] => RegN:Bank:15:RegBankx.entrada[1]
WriteReg[1] => RegN:Bank:16:RegBankx.entrada[1]
WriteReg[1] => RegN:Bank:17:RegBankx.entrada[1]
WriteReg[1] => RegN:Bank:18:RegBankx.entrada[1]
WriteReg[1] => RegN:Bank:19:RegBankx.entrada[1]
WriteReg[1] => RegN:Bank:20:RegBankx.entrada[1]
WriteReg[1] => RegN:Bank:21:RegBankx.entrada[1]
WriteReg[1] => RegN:Bank:22:RegBankx.entrada[1]
WriteReg[1] => RegN:Bank:23:RegBankx.entrada[1]
WriteReg[1] => RegN:Bank:24:RegBankx.entrada[1]
WriteReg[1] => RegN:Bank:25:RegBankx.entrada[1]
WriteReg[1] => RegN:Bank:26:RegBankx.entrada[1]
WriteReg[1] => RegN:Bank:27:RegBankx.entrada[1]
WriteReg[1] => RegN:Bank:28:RegBankx.entrada[1]
WriteReg[1] => RegN:Bank:29:RegBankx.entrada[1]
WriteReg[1] => RegN:Bank:30:RegBankx.entrada[1]
WriteReg[1] => RegN:Bank:31:RegBankx.entrada[1]
WriteReg[2] => RegN:Bank:0:RegBankx.entrada[2]
WriteReg[2] => RegN:Bank:1:RegBankx.entrada[2]
WriteReg[2] => RegN:Bank:2:RegBankx.entrada[2]
WriteReg[2] => RegN:Bank:3:RegBankx.entrada[2]
WriteReg[2] => RegN:Bank:4:RegBankx.entrada[2]
WriteReg[2] => RegN:Bank:5:RegBankx.entrada[2]
WriteReg[2] => RegN:Bank:6:RegBankx.entrada[2]
WriteReg[2] => RegN:Bank:7:RegBankx.entrada[2]
WriteReg[2] => RegN:Bank:8:RegBankx.entrada[2]
WriteReg[2] => RegN:Bank:9:RegBankx.entrada[2]
WriteReg[2] => RegN:Bank:10:RegBankx.entrada[2]
WriteReg[2] => RegN:Bank:11:RegBankx.entrada[2]
WriteReg[2] => RegN:Bank:12:RegBankx.entrada[2]
WriteReg[2] => RegN:Bank:13:RegBankx.entrada[2]
WriteReg[2] => RegN:Bank:14:RegBankx.entrada[2]
WriteReg[2] => RegN:Bank:15:RegBankx.entrada[2]
WriteReg[2] => RegN:Bank:16:RegBankx.entrada[2]
WriteReg[2] => RegN:Bank:17:RegBankx.entrada[2]
WriteReg[2] => RegN:Bank:18:RegBankx.entrada[2]
WriteReg[2] => RegN:Bank:19:RegBankx.entrada[2]
WriteReg[2] => RegN:Bank:20:RegBankx.entrada[2]
WriteReg[2] => RegN:Bank:21:RegBankx.entrada[2]
WriteReg[2] => RegN:Bank:22:RegBankx.entrada[2]
WriteReg[2] => RegN:Bank:23:RegBankx.entrada[2]
WriteReg[2] => RegN:Bank:24:RegBankx.entrada[2]
WriteReg[2] => RegN:Bank:25:RegBankx.entrada[2]
WriteReg[2] => RegN:Bank:26:RegBankx.entrada[2]
WriteReg[2] => RegN:Bank:27:RegBankx.entrada[2]
WriteReg[2] => RegN:Bank:28:RegBankx.entrada[2]
WriteReg[2] => RegN:Bank:29:RegBankx.entrada[2]
WriteReg[2] => RegN:Bank:30:RegBankx.entrada[2]
WriteReg[2] => RegN:Bank:31:RegBankx.entrada[2]
WriteReg[3] => RegN:Bank:0:RegBankx.entrada[3]
WriteReg[3] => RegN:Bank:1:RegBankx.entrada[3]
WriteReg[3] => RegN:Bank:2:RegBankx.entrada[3]
WriteReg[3] => RegN:Bank:3:RegBankx.entrada[3]
WriteReg[3] => RegN:Bank:4:RegBankx.entrada[3]
WriteReg[3] => RegN:Bank:5:RegBankx.entrada[3]
WriteReg[3] => RegN:Bank:6:RegBankx.entrada[3]
WriteReg[3] => RegN:Bank:7:RegBankx.entrada[3]
WriteReg[3] => RegN:Bank:8:RegBankx.entrada[3]
WriteReg[3] => RegN:Bank:9:RegBankx.entrada[3]
WriteReg[3] => RegN:Bank:10:RegBankx.entrada[3]
WriteReg[3] => RegN:Bank:11:RegBankx.entrada[3]
WriteReg[3] => RegN:Bank:12:RegBankx.entrada[3]
WriteReg[3] => RegN:Bank:13:RegBankx.entrada[3]
WriteReg[3] => RegN:Bank:14:RegBankx.entrada[3]
WriteReg[3] => RegN:Bank:15:RegBankx.entrada[3]
WriteReg[3] => RegN:Bank:16:RegBankx.entrada[3]
WriteReg[3] => RegN:Bank:17:RegBankx.entrada[3]
WriteReg[3] => RegN:Bank:18:RegBankx.entrada[3]
WriteReg[3] => RegN:Bank:19:RegBankx.entrada[3]
WriteReg[3] => RegN:Bank:20:RegBankx.entrada[3]
WriteReg[3] => RegN:Bank:21:RegBankx.entrada[3]
WriteReg[3] => RegN:Bank:22:RegBankx.entrada[3]
WriteReg[3] => RegN:Bank:23:RegBankx.entrada[3]
WriteReg[3] => RegN:Bank:24:RegBankx.entrada[3]
WriteReg[3] => RegN:Bank:25:RegBankx.entrada[3]
WriteReg[3] => RegN:Bank:26:RegBankx.entrada[3]
WriteReg[3] => RegN:Bank:27:RegBankx.entrada[3]
WriteReg[3] => RegN:Bank:28:RegBankx.entrada[3]
WriteReg[3] => RegN:Bank:29:RegBankx.entrada[3]
WriteReg[3] => RegN:Bank:30:RegBankx.entrada[3]
WriteReg[3] => RegN:Bank:31:RegBankx.entrada[3]
WriteReg[4] => RegN:Bank:0:RegBankx.entrada[4]
WriteReg[4] => RegN:Bank:1:RegBankx.entrada[4]
WriteReg[4] => RegN:Bank:2:RegBankx.entrada[4]
WriteReg[4] => RegN:Bank:3:RegBankx.entrada[4]
WriteReg[4] => RegN:Bank:4:RegBankx.entrada[4]
WriteReg[4] => RegN:Bank:5:RegBankx.entrada[4]
WriteReg[4] => RegN:Bank:6:RegBankx.entrada[4]
WriteReg[4] => RegN:Bank:7:RegBankx.entrada[4]
WriteReg[4] => RegN:Bank:8:RegBankx.entrada[4]
WriteReg[4] => RegN:Bank:9:RegBankx.entrada[4]
WriteReg[4] => RegN:Bank:10:RegBankx.entrada[4]
WriteReg[4] => RegN:Bank:11:RegBankx.entrada[4]
WriteReg[4] => RegN:Bank:12:RegBankx.entrada[4]
WriteReg[4] => RegN:Bank:13:RegBankx.entrada[4]
WriteReg[4] => RegN:Bank:14:RegBankx.entrada[4]
WriteReg[4] => RegN:Bank:15:RegBankx.entrada[4]
WriteReg[4] => RegN:Bank:16:RegBankx.entrada[4]
WriteReg[4] => RegN:Bank:17:RegBankx.entrada[4]
WriteReg[4] => RegN:Bank:18:RegBankx.entrada[4]
WriteReg[4] => RegN:Bank:19:RegBankx.entrada[4]
WriteReg[4] => RegN:Bank:20:RegBankx.entrada[4]
WriteReg[4] => RegN:Bank:21:RegBankx.entrada[4]
WriteReg[4] => RegN:Bank:22:RegBankx.entrada[4]
WriteReg[4] => RegN:Bank:23:RegBankx.entrada[4]
WriteReg[4] => RegN:Bank:24:RegBankx.entrada[4]
WriteReg[4] => RegN:Bank:25:RegBankx.entrada[4]
WriteReg[4] => RegN:Bank:26:RegBankx.entrada[4]
WriteReg[4] => RegN:Bank:27:RegBankx.entrada[4]
WriteReg[4] => RegN:Bank:28:RegBankx.entrada[4]
WriteReg[4] => RegN:Bank:29:RegBankx.entrada[4]
WriteReg[4] => RegN:Bank:30:RegBankx.entrada[4]
WriteReg[4] => RegN:Bank:31:RegBankx.entrada[4]
WriteReg[5] => RegN:Bank:0:RegBankx.entrada[5]
WriteReg[5] => RegN:Bank:1:RegBankx.entrada[5]
WriteReg[5] => RegN:Bank:2:RegBankx.entrada[5]
WriteReg[5] => RegN:Bank:3:RegBankx.entrada[5]
WriteReg[5] => RegN:Bank:4:RegBankx.entrada[5]
WriteReg[5] => RegN:Bank:5:RegBankx.entrada[5]
WriteReg[5] => RegN:Bank:6:RegBankx.entrada[5]
WriteReg[5] => RegN:Bank:7:RegBankx.entrada[5]
WriteReg[5] => RegN:Bank:8:RegBankx.entrada[5]
WriteReg[5] => RegN:Bank:9:RegBankx.entrada[5]
WriteReg[5] => RegN:Bank:10:RegBankx.entrada[5]
WriteReg[5] => RegN:Bank:11:RegBankx.entrada[5]
WriteReg[5] => RegN:Bank:12:RegBankx.entrada[5]
WriteReg[5] => RegN:Bank:13:RegBankx.entrada[5]
WriteReg[5] => RegN:Bank:14:RegBankx.entrada[5]
WriteReg[5] => RegN:Bank:15:RegBankx.entrada[5]
WriteReg[5] => RegN:Bank:16:RegBankx.entrada[5]
WriteReg[5] => RegN:Bank:17:RegBankx.entrada[5]
WriteReg[5] => RegN:Bank:18:RegBankx.entrada[5]
WriteReg[5] => RegN:Bank:19:RegBankx.entrada[5]
WriteReg[5] => RegN:Bank:20:RegBankx.entrada[5]
WriteReg[5] => RegN:Bank:21:RegBankx.entrada[5]
WriteReg[5] => RegN:Bank:22:RegBankx.entrada[5]
WriteReg[5] => RegN:Bank:23:RegBankx.entrada[5]
WriteReg[5] => RegN:Bank:24:RegBankx.entrada[5]
WriteReg[5] => RegN:Bank:25:RegBankx.entrada[5]
WriteReg[5] => RegN:Bank:26:RegBankx.entrada[5]
WriteReg[5] => RegN:Bank:27:RegBankx.entrada[5]
WriteReg[5] => RegN:Bank:28:RegBankx.entrada[5]
WriteReg[5] => RegN:Bank:29:RegBankx.entrada[5]
WriteReg[5] => RegN:Bank:30:RegBankx.entrada[5]
WriteReg[5] => RegN:Bank:31:RegBankx.entrada[5]
WriteReg[6] => RegN:Bank:0:RegBankx.entrada[6]
WriteReg[6] => RegN:Bank:1:RegBankx.entrada[6]
WriteReg[6] => RegN:Bank:2:RegBankx.entrada[6]
WriteReg[6] => RegN:Bank:3:RegBankx.entrada[6]
WriteReg[6] => RegN:Bank:4:RegBankx.entrada[6]
WriteReg[6] => RegN:Bank:5:RegBankx.entrada[6]
WriteReg[6] => RegN:Bank:6:RegBankx.entrada[6]
WriteReg[6] => RegN:Bank:7:RegBankx.entrada[6]
WriteReg[6] => RegN:Bank:8:RegBankx.entrada[6]
WriteReg[6] => RegN:Bank:9:RegBankx.entrada[6]
WriteReg[6] => RegN:Bank:10:RegBankx.entrada[6]
WriteReg[6] => RegN:Bank:11:RegBankx.entrada[6]
WriteReg[6] => RegN:Bank:12:RegBankx.entrada[6]
WriteReg[6] => RegN:Bank:13:RegBankx.entrada[6]
WriteReg[6] => RegN:Bank:14:RegBankx.entrada[6]
WriteReg[6] => RegN:Bank:15:RegBankx.entrada[6]
WriteReg[6] => RegN:Bank:16:RegBankx.entrada[6]
WriteReg[6] => RegN:Bank:17:RegBankx.entrada[6]
WriteReg[6] => RegN:Bank:18:RegBankx.entrada[6]
WriteReg[6] => RegN:Bank:19:RegBankx.entrada[6]
WriteReg[6] => RegN:Bank:20:RegBankx.entrada[6]
WriteReg[6] => RegN:Bank:21:RegBankx.entrada[6]
WriteReg[6] => RegN:Bank:22:RegBankx.entrada[6]
WriteReg[6] => RegN:Bank:23:RegBankx.entrada[6]
WriteReg[6] => RegN:Bank:24:RegBankx.entrada[6]
WriteReg[6] => RegN:Bank:25:RegBankx.entrada[6]
WriteReg[6] => RegN:Bank:26:RegBankx.entrada[6]
WriteReg[6] => RegN:Bank:27:RegBankx.entrada[6]
WriteReg[6] => RegN:Bank:28:RegBankx.entrada[6]
WriteReg[6] => RegN:Bank:29:RegBankx.entrada[6]
WriteReg[6] => RegN:Bank:30:RegBankx.entrada[6]
WriteReg[6] => RegN:Bank:31:RegBankx.entrada[6]
WriteReg[7] => RegN:Bank:0:RegBankx.entrada[7]
WriteReg[7] => RegN:Bank:1:RegBankx.entrada[7]
WriteReg[7] => RegN:Bank:2:RegBankx.entrada[7]
WriteReg[7] => RegN:Bank:3:RegBankx.entrada[7]
WriteReg[7] => RegN:Bank:4:RegBankx.entrada[7]
WriteReg[7] => RegN:Bank:5:RegBankx.entrada[7]
WriteReg[7] => RegN:Bank:6:RegBankx.entrada[7]
WriteReg[7] => RegN:Bank:7:RegBankx.entrada[7]
WriteReg[7] => RegN:Bank:8:RegBankx.entrada[7]
WriteReg[7] => RegN:Bank:9:RegBankx.entrada[7]
WriteReg[7] => RegN:Bank:10:RegBankx.entrada[7]
WriteReg[7] => RegN:Bank:11:RegBankx.entrada[7]
WriteReg[7] => RegN:Bank:12:RegBankx.entrada[7]
WriteReg[7] => RegN:Bank:13:RegBankx.entrada[7]
WriteReg[7] => RegN:Bank:14:RegBankx.entrada[7]
WriteReg[7] => RegN:Bank:15:RegBankx.entrada[7]
WriteReg[7] => RegN:Bank:16:RegBankx.entrada[7]
WriteReg[7] => RegN:Bank:17:RegBankx.entrada[7]
WriteReg[7] => RegN:Bank:18:RegBankx.entrada[7]
WriteReg[7] => RegN:Bank:19:RegBankx.entrada[7]
WriteReg[7] => RegN:Bank:20:RegBankx.entrada[7]
WriteReg[7] => RegN:Bank:21:RegBankx.entrada[7]
WriteReg[7] => RegN:Bank:22:RegBankx.entrada[7]
WriteReg[7] => RegN:Bank:23:RegBankx.entrada[7]
WriteReg[7] => RegN:Bank:24:RegBankx.entrada[7]
WriteReg[7] => RegN:Bank:25:RegBankx.entrada[7]
WriteReg[7] => RegN:Bank:26:RegBankx.entrada[7]
WriteReg[7] => RegN:Bank:27:RegBankx.entrada[7]
WriteReg[7] => RegN:Bank:28:RegBankx.entrada[7]
WriteReg[7] => RegN:Bank:29:RegBankx.entrada[7]
WriteReg[7] => RegN:Bank:30:RegBankx.entrada[7]
WriteReg[7] => RegN:Bank:31:RegBankx.entrada[7]
WriteReg[8] => RegN:Bank:0:RegBankx.entrada[8]
WriteReg[8] => RegN:Bank:1:RegBankx.entrada[8]
WriteReg[8] => RegN:Bank:2:RegBankx.entrada[8]
WriteReg[8] => RegN:Bank:3:RegBankx.entrada[8]
WriteReg[8] => RegN:Bank:4:RegBankx.entrada[8]
WriteReg[8] => RegN:Bank:5:RegBankx.entrada[8]
WriteReg[8] => RegN:Bank:6:RegBankx.entrada[8]
WriteReg[8] => RegN:Bank:7:RegBankx.entrada[8]
WriteReg[8] => RegN:Bank:8:RegBankx.entrada[8]
WriteReg[8] => RegN:Bank:9:RegBankx.entrada[8]
WriteReg[8] => RegN:Bank:10:RegBankx.entrada[8]
WriteReg[8] => RegN:Bank:11:RegBankx.entrada[8]
WriteReg[8] => RegN:Bank:12:RegBankx.entrada[8]
WriteReg[8] => RegN:Bank:13:RegBankx.entrada[8]
WriteReg[8] => RegN:Bank:14:RegBankx.entrada[8]
WriteReg[8] => RegN:Bank:15:RegBankx.entrada[8]
WriteReg[8] => RegN:Bank:16:RegBankx.entrada[8]
WriteReg[8] => RegN:Bank:17:RegBankx.entrada[8]
WriteReg[8] => RegN:Bank:18:RegBankx.entrada[8]
WriteReg[8] => RegN:Bank:19:RegBankx.entrada[8]
WriteReg[8] => RegN:Bank:20:RegBankx.entrada[8]
WriteReg[8] => RegN:Bank:21:RegBankx.entrada[8]
WriteReg[8] => RegN:Bank:22:RegBankx.entrada[8]
WriteReg[8] => RegN:Bank:23:RegBankx.entrada[8]
WriteReg[8] => RegN:Bank:24:RegBankx.entrada[8]
WriteReg[8] => RegN:Bank:25:RegBankx.entrada[8]
WriteReg[8] => RegN:Bank:26:RegBankx.entrada[8]
WriteReg[8] => RegN:Bank:27:RegBankx.entrada[8]
WriteReg[8] => RegN:Bank:28:RegBankx.entrada[8]
WriteReg[8] => RegN:Bank:29:RegBankx.entrada[8]
WriteReg[8] => RegN:Bank:30:RegBankx.entrada[8]
WriteReg[8] => RegN:Bank:31:RegBankx.entrada[8]
WriteReg[9] => RegN:Bank:0:RegBankx.entrada[9]
WriteReg[9] => RegN:Bank:1:RegBankx.entrada[9]
WriteReg[9] => RegN:Bank:2:RegBankx.entrada[9]
WriteReg[9] => RegN:Bank:3:RegBankx.entrada[9]
WriteReg[9] => RegN:Bank:4:RegBankx.entrada[9]
WriteReg[9] => RegN:Bank:5:RegBankx.entrada[9]
WriteReg[9] => RegN:Bank:6:RegBankx.entrada[9]
WriteReg[9] => RegN:Bank:7:RegBankx.entrada[9]
WriteReg[9] => RegN:Bank:8:RegBankx.entrada[9]
WriteReg[9] => RegN:Bank:9:RegBankx.entrada[9]
WriteReg[9] => RegN:Bank:10:RegBankx.entrada[9]
WriteReg[9] => RegN:Bank:11:RegBankx.entrada[9]
WriteReg[9] => RegN:Bank:12:RegBankx.entrada[9]
WriteReg[9] => RegN:Bank:13:RegBankx.entrada[9]
WriteReg[9] => RegN:Bank:14:RegBankx.entrada[9]
WriteReg[9] => RegN:Bank:15:RegBankx.entrada[9]
WriteReg[9] => RegN:Bank:16:RegBankx.entrada[9]
WriteReg[9] => RegN:Bank:17:RegBankx.entrada[9]
WriteReg[9] => RegN:Bank:18:RegBankx.entrada[9]
WriteReg[9] => RegN:Bank:19:RegBankx.entrada[9]
WriteReg[9] => RegN:Bank:20:RegBankx.entrada[9]
WriteReg[9] => RegN:Bank:21:RegBankx.entrada[9]
WriteReg[9] => RegN:Bank:22:RegBankx.entrada[9]
WriteReg[9] => RegN:Bank:23:RegBankx.entrada[9]
WriteReg[9] => RegN:Bank:24:RegBankx.entrada[9]
WriteReg[9] => RegN:Bank:25:RegBankx.entrada[9]
WriteReg[9] => RegN:Bank:26:RegBankx.entrada[9]
WriteReg[9] => RegN:Bank:27:RegBankx.entrada[9]
WriteReg[9] => RegN:Bank:28:RegBankx.entrada[9]
WriteReg[9] => RegN:Bank:29:RegBankx.entrada[9]
WriteReg[9] => RegN:Bank:30:RegBankx.entrada[9]
WriteReg[9] => RegN:Bank:31:RegBankx.entrada[9]
WriteReg[10] => RegN:Bank:0:RegBankx.entrada[10]
WriteReg[10] => RegN:Bank:1:RegBankx.entrada[10]
WriteReg[10] => RegN:Bank:2:RegBankx.entrada[10]
WriteReg[10] => RegN:Bank:3:RegBankx.entrada[10]
WriteReg[10] => RegN:Bank:4:RegBankx.entrada[10]
WriteReg[10] => RegN:Bank:5:RegBankx.entrada[10]
WriteReg[10] => RegN:Bank:6:RegBankx.entrada[10]
WriteReg[10] => RegN:Bank:7:RegBankx.entrada[10]
WriteReg[10] => RegN:Bank:8:RegBankx.entrada[10]
WriteReg[10] => RegN:Bank:9:RegBankx.entrada[10]
WriteReg[10] => RegN:Bank:10:RegBankx.entrada[10]
WriteReg[10] => RegN:Bank:11:RegBankx.entrada[10]
WriteReg[10] => RegN:Bank:12:RegBankx.entrada[10]
WriteReg[10] => RegN:Bank:13:RegBankx.entrada[10]
WriteReg[10] => RegN:Bank:14:RegBankx.entrada[10]
WriteReg[10] => RegN:Bank:15:RegBankx.entrada[10]
WriteReg[10] => RegN:Bank:16:RegBankx.entrada[10]
WriteReg[10] => RegN:Bank:17:RegBankx.entrada[10]
WriteReg[10] => RegN:Bank:18:RegBankx.entrada[10]
WriteReg[10] => RegN:Bank:19:RegBankx.entrada[10]
WriteReg[10] => RegN:Bank:20:RegBankx.entrada[10]
WriteReg[10] => RegN:Bank:21:RegBankx.entrada[10]
WriteReg[10] => RegN:Bank:22:RegBankx.entrada[10]
WriteReg[10] => RegN:Bank:23:RegBankx.entrada[10]
WriteReg[10] => RegN:Bank:24:RegBankx.entrada[10]
WriteReg[10] => RegN:Bank:25:RegBankx.entrada[10]
WriteReg[10] => RegN:Bank:26:RegBankx.entrada[10]
WriteReg[10] => RegN:Bank:27:RegBankx.entrada[10]
WriteReg[10] => RegN:Bank:28:RegBankx.entrada[10]
WriteReg[10] => RegN:Bank:29:RegBankx.entrada[10]
WriteReg[10] => RegN:Bank:30:RegBankx.entrada[10]
WriteReg[10] => RegN:Bank:31:RegBankx.entrada[10]
WriteReg[11] => RegN:Bank:0:RegBankx.entrada[11]
WriteReg[11] => RegN:Bank:1:RegBankx.entrada[11]
WriteReg[11] => RegN:Bank:2:RegBankx.entrada[11]
WriteReg[11] => RegN:Bank:3:RegBankx.entrada[11]
WriteReg[11] => RegN:Bank:4:RegBankx.entrada[11]
WriteReg[11] => RegN:Bank:5:RegBankx.entrada[11]
WriteReg[11] => RegN:Bank:6:RegBankx.entrada[11]
WriteReg[11] => RegN:Bank:7:RegBankx.entrada[11]
WriteReg[11] => RegN:Bank:8:RegBankx.entrada[11]
WriteReg[11] => RegN:Bank:9:RegBankx.entrada[11]
WriteReg[11] => RegN:Bank:10:RegBankx.entrada[11]
WriteReg[11] => RegN:Bank:11:RegBankx.entrada[11]
WriteReg[11] => RegN:Bank:12:RegBankx.entrada[11]
WriteReg[11] => RegN:Bank:13:RegBankx.entrada[11]
WriteReg[11] => RegN:Bank:14:RegBankx.entrada[11]
WriteReg[11] => RegN:Bank:15:RegBankx.entrada[11]
WriteReg[11] => RegN:Bank:16:RegBankx.entrada[11]
WriteReg[11] => RegN:Bank:17:RegBankx.entrada[11]
WriteReg[11] => RegN:Bank:18:RegBankx.entrada[11]
WriteReg[11] => RegN:Bank:19:RegBankx.entrada[11]
WriteReg[11] => RegN:Bank:20:RegBankx.entrada[11]
WriteReg[11] => RegN:Bank:21:RegBankx.entrada[11]
WriteReg[11] => RegN:Bank:22:RegBankx.entrada[11]
WriteReg[11] => RegN:Bank:23:RegBankx.entrada[11]
WriteReg[11] => RegN:Bank:24:RegBankx.entrada[11]
WriteReg[11] => RegN:Bank:25:RegBankx.entrada[11]
WriteReg[11] => RegN:Bank:26:RegBankx.entrada[11]
WriteReg[11] => RegN:Bank:27:RegBankx.entrada[11]
WriteReg[11] => RegN:Bank:28:RegBankx.entrada[11]
WriteReg[11] => RegN:Bank:29:RegBankx.entrada[11]
WriteReg[11] => RegN:Bank:30:RegBankx.entrada[11]
WriteReg[11] => RegN:Bank:31:RegBankx.entrada[11]
WriteReg[12] => RegN:Bank:0:RegBankx.entrada[12]
WriteReg[12] => RegN:Bank:1:RegBankx.entrada[12]
WriteReg[12] => RegN:Bank:2:RegBankx.entrada[12]
WriteReg[12] => RegN:Bank:3:RegBankx.entrada[12]
WriteReg[12] => RegN:Bank:4:RegBankx.entrada[12]
WriteReg[12] => RegN:Bank:5:RegBankx.entrada[12]
WriteReg[12] => RegN:Bank:6:RegBankx.entrada[12]
WriteReg[12] => RegN:Bank:7:RegBankx.entrada[12]
WriteReg[12] => RegN:Bank:8:RegBankx.entrada[12]
WriteReg[12] => RegN:Bank:9:RegBankx.entrada[12]
WriteReg[12] => RegN:Bank:10:RegBankx.entrada[12]
WriteReg[12] => RegN:Bank:11:RegBankx.entrada[12]
WriteReg[12] => RegN:Bank:12:RegBankx.entrada[12]
WriteReg[12] => RegN:Bank:13:RegBankx.entrada[12]
WriteReg[12] => RegN:Bank:14:RegBankx.entrada[12]
WriteReg[12] => RegN:Bank:15:RegBankx.entrada[12]
WriteReg[12] => RegN:Bank:16:RegBankx.entrada[12]
WriteReg[12] => RegN:Bank:17:RegBankx.entrada[12]
WriteReg[12] => RegN:Bank:18:RegBankx.entrada[12]
WriteReg[12] => RegN:Bank:19:RegBankx.entrada[12]
WriteReg[12] => RegN:Bank:20:RegBankx.entrada[12]
WriteReg[12] => RegN:Bank:21:RegBankx.entrada[12]
WriteReg[12] => RegN:Bank:22:RegBankx.entrada[12]
WriteReg[12] => RegN:Bank:23:RegBankx.entrada[12]
WriteReg[12] => RegN:Bank:24:RegBankx.entrada[12]
WriteReg[12] => RegN:Bank:25:RegBankx.entrada[12]
WriteReg[12] => RegN:Bank:26:RegBankx.entrada[12]
WriteReg[12] => RegN:Bank:27:RegBankx.entrada[12]
WriteReg[12] => RegN:Bank:28:RegBankx.entrada[12]
WriteReg[12] => RegN:Bank:29:RegBankx.entrada[12]
WriteReg[12] => RegN:Bank:30:RegBankx.entrada[12]
WriteReg[12] => RegN:Bank:31:RegBankx.entrada[12]
WriteReg[13] => RegN:Bank:0:RegBankx.entrada[13]
WriteReg[13] => RegN:Bank:1:RegBankx.entrada[13]
WriteReg[13] => RegN:Bank:2:RegBankx.entrada[13]
WriteReg[13] => RegN:Bank:3:RegBankx.entrada[13]
WriteReg[13] => RegN:Bank:4:RegBankx.entrada[13]
WriteReg[13] => RegN:Bank:5:RegBankx.entrada[13]
WriteReg[13] => RegN:Bank:6:RegBankx.entrada[13]
WriteReg[13] => RegN:Bank:7:RegBankx.entrada[13]
WriteReg[13] => RegN:Bank:8:RegBankx.entrada[13]
WriteReg[13] => RegN:Bank:9:RegBankx.entrada[13]
WriteReg[13] => RegN:Bank:10:RegBankx.entrada[13]
WriteReg[13] => RegN:Bank:11:RegBankx.entrada[13]
WriteReg[13] => RegN:Bank:12:RegBankx.entrada[13]
WriteReg[13] => RegN:Bank:13:RegBankx.entrada[13]
WriteReg[13] => RegN:Bank:14:RegBankx.entrada[13]
WriteReg[13] => RegN:Bank:15:RegBankx.entrada[13]
WriteReg[13] => RegN:Bank:16:RegBankx.entrada[13]
WriteReg[13] => RegN:Bank:17:RegBankx.entrada[13]
WriteReg[13] => RegN:Bank:18:RegBankx.entrada[13]
WriteReg[13] => RegN:Bank:19:RegBankx.entrada[13]
WriteReg[13] => RegN:Bank:20:RegBankx.entrada[13]
WriteReg[13] => RegN:Bank:21:RegBankx.entrada[13]
WriteReg[13] => RegN:Bank:22:RegBankx.entrada[13]
WriteReg[13] => RegN:Bank:23:RegBankx.entrada[13]
WriteReg[13] => RegN:Bank:24:RegBankx.entrada[13]
WriteReg[13] => RegN:Bank:25:RegBankx.entrada[13]
WriteReg[13] => RegN:Bank:26:RegBankx.entrada[13]
WriteReg[13] => RegN:Bank:27:RegBankx.entrada[13]
WriteReg[13] => RegN:Bank:28:RegBankx.entrada[13]
WriteReg[13] => RegN:Bank:29:RegBankx.entrada[13]
WriteReg[13] => RegN:Bank:30:RegBankx.entrada[13]
WriteReg[13] => RegN:Bank:31:RegBankx.entrada[13]
WriteReg[14] => RegN:Bank:0:RegBankx.entrada[14]
WriteReg[14] => RegN:Bank:1:RegBankx.entrada[14]
WriteReg[14] => RegN:Bank:2:RegBankx.entrada[14]
WriteReg[14] => RegN:Bank:3:RegBankx.entrada[14]
WriteReg[14] => RegN:Bank:4:RegBankx.entrada[14]
WriteReg[14] => RegN:Bank:5:RegBankx.entrada[14]
WriteReg[14] => RegN:Bank:6:RegBankx.entrada[14]
WriteReg[14] => RegN:Bank:7:RegBankx.entrada[14]
WriteReg[14] => RegN:Bank:8:RegBankx.entrada[14]
WriteReg[14] => RegN:Bank:9:RegBankx.entrada[14]
WriteReg[14] => RegN:Bank:10:RegBankx.entrada[14]
WriteReg[14] => RegN:Bank:11:RegBankx.entrada[14]
WriteReg[14] => RegN:Bank:12:RegBankx.entrada[14]
WriteReg[14] => RegN:Bank:13:RegBankx.entrada[14]
WriteReg[14] => RegN:Bank:14:RegBankx.entrada[14]
WriteReg[14] => RegN:Bank:15:RegBankx.entrada[14]
WriteReg[14] => RegN:Bank:16:RegBankx.entrada[14]
WriteReg[14] => RegN:Bank:17:RegBankx.entrada[14]
WriteReg[14] => RegN:Bank:18:RegBankx.entrada[14]
WriteReg[14] => RegN:Bank:19:RegBankx.entrada[14]
WriteReg[14] => RegN:Bank:20:RegBankx.entrada[14]
WriteReg[14] => RegN:Bank:21:RegBankx.entrada[14]
WriteReg[14] => RegN:Bank:22:RegBankx.entrada[14]
WriteReg[14] => RegN:Bank:23:RegBankx.entrada[14]
WriteReg[14] => RegN:Bank:24:RegBankx.entrada[14]
WriteReg[14] => RegN:Bank:25:RegBankx.entrada[14]
WriteReg[14] => RegN:Bank:26:RegBankx.entrada[14]
WriteReg[14] => RegN:Bank:27:RegBankx.entrada[14]
WriteReg[14] => RegN:Bank:28:RegBankx.entrada[14]
WriteReg[14] => RegN:Bank:29:RegBankx.entrada[14]
WriteReg[14] => RegN:Bank:30:RegBankx.entrada[14]
WriteReg[14] => RegN:Bank:31:RegBankx.entrada[14]
WriteReg[15] => RegN:Bank:0:RegBankx.entrada[15]
WriteReg[15] => RegN:Bank:1:RegBankx.entrada[15]
WriteReg[15] => RegN:Bank:2:RegBankx.entrada[15]
WriteReg[15] => RegN:Bank:3:RegBankx.entrada[15]
WriteReg[15] => RegN:Bank:4:RegBankx.entrada[15]
WriteReg[15] => RegN:Bank:5:RegBankx.entrada[15]
WriteReg[15] => RegN:Bank:6:RegBankx.entrada[15]
WriteReg[15] => RegN:Bank:7:RegBankx.entrada[15]
WriteReg[15] => RegN:Bank:8:RegBankx.entrada[15]
WriteReg[15] => RegN:Bank:9:RegBankx.entrada[15]
WriteReg[15] => RegN:Bank:10:RegBankx.entrada[15]
WriteReg[15] => RegN:Bank:11:RegBankx.entrada[15]
WriteReg[15] => RegN:Bank:12:RegBankx.entrada[15]
WriteReg[15] => RegN:Bank:13:RegBankx.entrada[15]
WriteReg[15] => RegN:Bank:14:RegBankx.entrada[15]
WriteReg[15] => RegN:Bank:15:RegBankx.entrada[15]
WriteReg[15] => RegN:Bank:16:RegBankx.entrada[15]
WriteReg[15] => RegN:Bank:17:RegBankx.entrada[15]
WriteReg[15] => RegN:Bank:18:RegBankx.entrada[15]
WriteReg[15] => RegN:Bank:19:RegBankx.entrada[15]
WriteReg[15] => RegN:Bank:20:RegBankx.entrada[15]
WriteReg[15] => RegN:Bank:21:RegBankx.entrada[15]
WriteReg[15] => RegN:Bank:22:RegBankx.entrada[15]
WriteReg[15] => RegN:Bank:23:RegBankx.entrada[15]
WriteReg[15] => RegN:Bank:24:RegBankx.entrada[15]
WriteReg[15] => RegN:Bank:25:RegBankx.entrada[15]
WriteReg[15] => RegN:Bank:26:RegBankx.entrada[15]
WriteReg[15] => RegN:Bank:27:RegBankx.entrada[15]
WriteReg[15] => RegN:Bank:28:RegBankx.entrada[15]
WriteReg[15] => RegN:Bank:29:RegBankx.entrada[15]
WriteReg[15] => RegN:Bank:30:RegBankx.entrada[15]
WriteReg[15] => RegN:Bank:31:RegBankx.entrada[15]
WriteReg[16] => RegN:Bank:0:RegBankx.entrada[16]
WriteReg[16] => RegN:Bank:1:RegBankx.entrada[16]
WriteReg[16] => RegN:Bank:2:RegBankx.entrada[16]
WriteReg[16] => RegN:Bank:3:RegBankx.entrada[16]
WriteReg[16] => RegN:Bank:4:RegBankx.entrada[16]
WriteReg[16] => RegN:Bank:5:RegBankx.entrada[16]
WriteReg[16] => RegN:Bank:6:RegBankx.entrada[16]
WriteReg[16] => RegN:Bank:7:RegBankx.entrada[16]
WriteReg[16] => RegN:Bank:8:RegBankx.entrada[16]
WriteReg[16] => RegN:Bank:9:RegBankx.entrada[16]
WriteReg[16] => RegN:Bank:10:RegBankx.entrada[16]
WriteReg[16] => RegN:Bank:11:RegBankx.entrada[16]
WriteReg[16] => RegN:Bank:12:RegBankx.entrada[16]
WriteReg[16] => RegN:Bank:13:RegBankx.entrada[16]
WriteReg[16] => RegN:Bank:14:RegBankx.entrada[16]
WriteReg[16] => RegN:Bank:15:RegBankx.entrada[16]
WriteReg[16] => RegN:Bank:16:RegBankx.entrada[16]
WriteReg[16] => RegN:Bank:17:RegBankx.entrada[16]
WriteReg[16] => RegN:Bank:18:RegBankx.entrada[16]
WriteReg[16] => RegN:Bank:19:RegBankx.entrada[16]
WriteReg[16] => RegN:Bank:20:RegBankx.entrada[16]
WriteReg[16] => RegN:Bank:21:RegBankx.entrada[16]
WriteReg[16] => RegN:Bank:22:RegBankx.entrada[16]
WriteReg[16] => RegN:Bank:23:RegBankx.entrada[16]
WriteReg[16] => RegN:Bank:24:RegBankx.entrada[16]
WriteReg[16] => RegN:Bank:25:RegBankx.entrada[16]
WriteReg[16] => RegN:Bank:26:RegBankx.entrada[16]
WriteReg[16] => RegN:Bank:27:RegBankx.entrada[16]
WriteReg[16] => RegN:Bank:28:RegBankx.entrada[16]
WriteReg[16] => RegN:Bank:29:RegBankx.entrada[16]
WriteReg[16] => RegN:Bank:30:RegBankx.entrada[16]
WriteReg[16] => RegN:Bank:31:RegBankx.entrada[16]
WriteReg[17] => RegN:Bank:0:RegBankx.entrada[17]
WriteReg[17] => RegN:Bank:1:RegBankx.entrada[17]
WriteReg[17] => RegN:Bank:2:RegBankx.entrada[17]
WriteReg[17] => RegN:Bank:3:RegBankx.entrada[17]
WriteReg[17] => RegN:Bank:4:RegBankx.entrada[17]
WriteReg[17] => RegN:Bank:5:RegBankx.entrada[17]
WriteReg[17] => RegN:Bank:6:RegBankx.entrada[17]
WriteReg[17] => RegN:Bank:7:RegBankx.entrada[17]
WriteReg[17] => RegN:Bank:8:RegBankx.entrada[17]
WriteReg[17] => RegN:Bank:9:RegBankx.entrada[17]
WriteReg[17] => RegN:Bank:10:RegBankx.entrada[17]
WriteReg[17] => RegN:Bank:11:RegBankx.entrada[17]
WriteReg[17] => RegN:Bank:12:RegBankx.entrada[17]
WriteReg[17] => RegN:Bank:13:RegBankx.entrada[17]
WriteReg[17] => RegN:Bank:14:RegBankx.entrada[17]
WriteReg[17] => RegN:Bank:15:RegBankx.entrada[17]
WriteReg[17] => RegN:Bank:16:RegBankx.entrada[17]
WriteReg[17] => RegN:Bank:17:RegBankx.entrada[17]
WriteReg[17] => RegN:Bank:18:RegBankx.entrada[17]
WriteReg[17] => RegN:Bank:19:RegBankx.entrada[17]
WriteReg[17] => RegN:Bank:20:RegBankx.entrada[17]
WriteReg[17] => RegN:Bank:21:RegBankx.entrada[17]
WriteReg[17] => RegN:Bank:22:RegBankx.entrada[17]
WriteReg[17] => RegN:Bank:23:RegBankx.entrada[17]
WriteReg[17] => RegN:Bank:24:RegBankx.entrada[17]
WriteReg[17] => RegN:Bank:25:RegBankx.entrada[17]
WriteReg[17] => RegN:Bank:26:RegBankx.entrada[17]
WriteReg[17] => RegN:Bank:27:RegBankx.entrada[17]
WriteReg[17] => RegN:Bank:28:RegBankx.entrada[17]
WriteReg[17] => RegN:Bank:29:RegBankx.entrada[17]
WriteReg[17] => RegN:Bank:30:RegBankx.entrada[17]
WriteReg[17] => RegN:Bank:31:RegBankx.entrada[17]
WriteReg[18] => RegN:Bank:0:RegBankx.entrada[18]
WriteReg[18] => RegN:Bank:1:RegBankx.entrada[18]
WriteReg[18] => RegN:Bank:2:RegBankx.entrada[18]
WriteReg[18] => RegN:Bank:3:RegBankx.entrada[18]
WriteReg[18] => RegN:Bank:4:RegBankx.entrada[18]
WriteReg[18] => RegN:Bank:5:RegBankx.entrada[18]
WriteReg[18] => RegN:Bank:6:RegBankx.entrada[18]
WriteReg[18] => RegN:Bank:7:RegBankx.entrada[18]
WriteReg[18] => RegN:Bank:8:RegBankx.entrada[18]
WriteReg[18] => RegN:Bank:9:RegBankx.entrada[18]
WriteReg[18] => RegN:Bank:10:RegBankx.entrada[18]
WriteReg[18] => RegN:Bank:11:RegBankx.entrada[18]
WriteReg[18] => RegN:Bank:12:RegBankx.entrada[18]
WriteReg[18] => RegN:Bank:13:RegBankx.entrada[18]
WriteReg[18] => RegN:Bank:14:RegBankx.entrada[18]
WriteReg[18] => RegN:Bank:15:RegBankx.entrada[18]
WriteReg[18] => RegN:Bank:16:RegBankx.entrada[18]
WriteReg[18] => RegN:Bank:17:RegBankx.entrada[18]
WriteReg[18] => RegN:Bank:18:RegBankx.entrada[18]
WriteReg[18] => RegN:Bank:19:RegBankx.entrada[18]
WriteReg[18] => RegN:Bank:20:RegBankx.entrada[18]
WriteReg[18] => RegN:Bank:21:RegBankx.entrada[18]
WriteReg[18] => RegN:Bank:22:RegBankx.entrada[18]
WriteReg[18] => RegN:Bank:23:RegBankx.entrada[18]
WriteReg[18] => RegN:Bank:24:RegBankx.entrada[18]
WriteReg[18] => RegN:Bank:25:RegBankx.entrada[18]
WriteReg[18] => RegN:Bank:26:RegBankx.entrada[18]
WriteReg[18] => RegN:Bank:27:RegBankx.entrada[18]
WriteReg[18] => RegN:Bank:28:RegBankx.entrada[18]
WriteReg[18] => RegN:Bank:29:RegBankx.entrada[18]
WriteReg[18] => RegN:Bank:30:RegBankx.entrada[18]
WriteReg[18] => RegN:Bank:31:RegBankx.entrada[18]
WriteReg[19] => RegN:Bank:0:RegBankx.entrada[19]
WriteReg[19] => RegN:Bank:1:RegBankx.entrada[19]
WriteReg[19] => RegN:Bank:2:RegBankx.entrada[19]
WriteReg[19] => RegN:Bank:3:RegBankx.entrada[19]
WriteReg[19] => RegN:Bank:4:RegBankx.entrada[19]
WriteReg[19] => RegN:Bank:5:RegBankx.entrada[19]
WriteReg[19] => RegN:Bank:6:RegBankx.entrada[19]
WriteReg[19] => RegN:Bank:7:RegBankx.entrada[19]
WriteReg[19] => RegN:Bank:8:RegBankx.entrada[19]
WriteReg[19] => RegN:Bank:9:RegBankx.entrada[19]
WriteReg[19] => RegN:Bank:10:RegBankx.entrada[19]
WriteReg[19] => RegN:Bank:11:RegBankx.entrada[19]
WriteReg[19] => RegN:Bank:12:RegBankx.entrada[19]
WriteReg[19] => RegN:Bank:13:RegBankx.entrada[19]
WriteReg[19] => RegN:Bank:14:RegBankx.entrada[19]
WriteReg[19] => RegN:Bank:15:RegBankx.entrada[19]
WriteReg[19] => RegN:Bank:16:RegBankx.entrada[19]
WriteReg[19] => RegN:Bank:17:RegBankx.entrada[19]
WriteReg[19] => RegN:Bank:18:RegBankx.entrada[19]
WriteReg[19] => RegN:Bank:19:RegBankx.entrada[19]
WriteReg[19] => RegN:Bank:20:RegBankx.entrada[19]
WriteReg[19] => RegN:Bank:21:RegBankx.entrada[19]
WriteReg[19] => RegN:Bank:22:RegBankx.entrada[19]
WriteReg[19] => RegN:Bank:23:RegBankx.entrada[19]
WriteReg[19] => RegN:Bank:24:RegBankx.entrada[19]
WriteReg[19] => RegN:Bank:25:RegBankx.entrada[19]
WriteReg[19] => RegN:Bank:26:RegBankx.entrada[19]
WriteReg[19] => RegN:Bank:27:RegBankx.entrada[19]
WriteReg[19] => RegN:Bank:28:RegBankx.entrada[19]
WriteReg[19] => RegN:Bank:29:RegBankx.entrada[19]
WriteReg[19] => RegN:Bank:30:RegBankx.entrada[19]
WriteReg[19] => RegN:Bank:31:RegBankx.entrada[19]
WriteReg[20] => RegN:Bank:0:RegBankx.entrada[20]
WriteReg[20] => RegN:Bank:1:RegBankx.entrada[20]
WriteReg[20] => RegN:Bank:2:RegBankx.entrada[20]
WriteReg[20] => RegN:Bank:3:RegBankx.entrada[20]
WriteReg[20] => RegN:Bank:4:RegBankx.entrada[20]
WriteReg[20] => RegN:Bank:5:RegBankx.entrada[20]
WriteReg[20] => RegN:Bank:6:RegBankx.entrada[20]
WriteReg[20] => RegN:Bank:7:RegBankx.entrada[20]
WriteReg[20] => RegN:Bank:8:RegBankx.entrada[20]
WriteReg[20] => RegN:Bank:9:RegBankx.entrada[20]
WriteReg[20] => RegN:Bank:10:RegBankx.entrada[20]
WriteReg[20] => RegN:Bank:11:RegBankx.entrada[20]
WriteReg[20] => RegN:Bank:12:RegBankx.entrada[20]
WriteReg[20] => RegN:Bank:13:RegBankx.entrada[20]
WriteReg[20] => RegN:Bank:14:RegBankx.entrada[20]
WriteReg[20] => RegN:Bank:15:RegBankx.entrada[20]
WriteReg[20] => RegN:Bank:16:RegBankx.entrada[20]
WriteReg[20] => RegN:Bank:17:RegBankx.entrada[20]
WriteReg[20] => RegN:Bank:18:RegBankx.entrada[20]
WriteReg[20] => RegN:Bank:19:RegBankx.entrada[20]
WriteReg[20] => RegN:Bank:20:RegBankx.entrada[20]
WriteReg[20] => RegN:Bank:21:RegBankx.entrada[20]
WriteReg[20] => RegN:Bank:22:RegBankx.entrada[20]
WriteReg[20] => RegN:Bank:23:RegBankx.entrada[20]
WriteReg[20] => RegN:Bank:24:RegBankx.entrada[20]
WriteReg[20] => RegN:Bank:25:RegBankx.entrada[20]
WriteReg[20] => RegN:Bank:26:RegBankx.entrada[20]
WriteReg[20] => RegN:Bank:27:RegBankx.entrada[20]
WriteReg[20] => RegN:Bank:28:RegBankx.entrada[20]
WriteReg[20] => RegN:Bank:29:RegBankx.entrada[20]
WriteReg[20] => RegN:Bank:30:RegBankx.entrada[20]
WriteReg[20] => RegN:Bank:31:RegBankx.entrada[20]
WriteReg[21] => RegN:Bank:0:RegBankx.entrada[21]
WriteReg[21] => RegN:Bank:1:RegBankx.entrada[21]
WriteReg[21] => RegN:Bank:2:RegBankx.entrada[21]
WriteReg[21] => RegN:Bank:3:RegBankx.entrada[21]
WriteReg[21] => RegN:Bank:4:RegBankx.entrada[21]
WriteReg[21] => RegN:Bank:5:RegBankx.entrada[21]
WriteReg[21] => RegN:Bank:6:RegBankx.entrada[21]
WriteReg[21] => RegN:Bank:7:RegBankx.entrada[21]
WriteReg[21] => RegN:Bank:8:RegBankx.entrada[21]
WriteReg[21] => RegN:Bank:9:RegBankx.entrada[21]
WriteReg[21] => RegN:Bank:10:RegBankx.entrada[21]
WriteReg[21] => RegN:Bank:11:RegBankx.entrada[21]
WriteReg[21] => RegN:Bank:12:RegBankx.entrada[21]
WriteReg[21] => RegN:Bank:13:RegBankx.entrada[21]
WriteReg[21] => RegN:Bank:14:RegBankx.entrada[21]
WriteReg[21] => RegN:Bank:15:RegBankx.entrada[21]
WriteReg[21] => RegN:Bank:16:RegBankx.entrada[21]
WriteReg[21] => RegN:Bank:17:RegBankx.entrada[21]
WriteReg[21] => RegN:Bank:18:RegBankx.entrada[21]
WriteReg[21] => RegN:Bank:19:RegBankx.entrada[21]
WriteReg[21] => RegN:Bank:20:RegBankx.entrada[21]
WriteReg[21] => RegN:Bank:21:RegBankx.entrada[21]
WriteReg[21] => RegN:Bank:22:RegBankx.entrada[21]
WriteReg[21] => RegN:Bank:23:RegBankx.entrada[21]
WriteReg[21] => RegN:Bank:24:RegBankx.entrada[21]
WriteReg[21] => RegN:Bank:25:RegBankx.entrada[21]
WriteReg[21] => RegN:Bank:26:RegBankx.entrada[21]
WriteReg[21] => RegN:Bank:27:RegBankx.entrada[21]
WriteReg[21] => RegN:Bank:28:RegBankx.entrada[21]
WriteReg[21] => RegN:Bank:29:RegBankx.entrada[21]
WriteReg[21] => RegN:Bank:30:RegBankx.entrada[21]
WriteReg[21] => RegN:Bank:31:RegBankx.entrada[21]
WriteReg[22] => RegN:Bank:0:RegBankx.entrada[22]
WriteReg[22] => RegN:Bank:1:RegBankx.entrada[22]
WriteReg[22] => RegN:Bank:2:RegBankx.entrada[22]
WriteReg[22] => RegN:Bank:3:RegBankx.entrada[22]
WriteReg[22] => RegN:Bank:4:RegBankx.entrada[22]
WriteReg[22] => RegN:Bank:5:RegBankx.entrada[22]
WriteReg[22] => RegN:Bank:6:RegBankx.entrada[22]
WriteReg[22] => RegN:Bank:7:RegBankx.entrada[22]
WriteReg[22] => RegN:Bank:8:RegBankx.entrada[22]
WriteReg[22] => RegN:Bank:9:RegBankx.entrada[22]
WriteReg[22] => RegN:Bank:10:RegBankx.entrada[22]
WriteReg[22] => RegN:Bank:11:RegBankx.entrada[22]
WriteReg[22] => RegN:Bank:12:RegBankx.entrada[22]
WriteReg[22] => RegN:Bank:13:RegBankx.entrada[22]
WriteReg[22] => RegN:Bank:14:RegBankx.entrada[22]
WriteReg[22] => RegN:Bank:15:RegBankx.entrada[22]
WriteReg[22] => RegN:Bank:16:RegBankx.entrada[22]
WriteReg[22] => RegN:Bank:17:RegBankx.entrada[22]
WriteReg[22] => RegN:Bank:18:RegBankx.entrada[22]
WriteReg[22] => RegN:Bank:19:RegBankx.entrada[22]
WriteReg[22] => RegN:Bank:20:RegBankx.entrada[22]
WriteReg[22] => RegN:Bank:21:RegBankx.entrada[22]
WriteReg[22] => RegN:Bank:22:RegBankx.entrada[22]
WriteReg[22] => RegN:Bank:23:RegBankx.entrada[22]
WriteReg[22] => RegN:Bank:24:RegBankx.entrada[22]
WriteReg[22] => RegN:Bank:25:RegBankx.entrada[22]
WriteReg[22] => RegN:Bank:26:RegBankx.entrada[22]
WriteReg[22] => RegN:Bank:27:RegBankx.entrada[22]
WriteReg[22] => RegN:Bank:28:RegBankx.entrada[22]
WriteReg[22] => RegN:Bank:29:RegBankx.entrada[22]
WriteReg[22] => RegN:Bank:30:RegBankx.entrada[22]
WriteReg[22] => RegN:Bank:31:RegBankx.entrada[22]
WriteReg[23] => RegN:Bank:0:RegBankx.entrada[23]
WriteReg[23] => RegN:Bank:1:RegBankx.entrada[23]
WriteReg[23] => RegN:Bank:2:RegBankx.entrada[23]
WriteReg[23] => RegN:Bank:3:RegBankx.entrada[23]
WriteReg[23] => RegN:Bank:4:RegBankx.entrada[23]
WriteReg[23] => RegN:Bank:5:RegBankx.entrada[23]
WriteReg[23] => RegN:Bank:6:RegBankx.entrada[23]
WriteReg[23] => RegN:Bank:7:RegBankx.entrada[23]
WriteReg[23] => RegN:Bank:8:RegBankx.entrada[23]
WriteReg[23] => RegN:Bank:9:RegBankx.entrada[23]
WriteReg[23] => RegN:Bank:10:RegBankx.entrada[23]
WriteReg[23] => RegN:Bank:11:RegBankx.entrada[23]
WriteReg[23] => RegN:Bank:12:RegBankx.entrada[23]
WriteReg[23] => RegN:Bank:13:RegBankx.entrada[23]
WriteReg[23] => RegN:Bank:14:RegBankx.entrada[23]
WriteReg[23] => RegN:Bank:15:RegBankx.entrada[23]
WriteReg[23] => RegN:Bank:16:RegBankx.entrada[23]
WriteReg[23] => RegN:Bank:17:RegBankx.entrada[23]
WriteReg[23] => RegN:Bank:18:RegBankx.entrada[23]
WriteReg[23] => RegN:Bank:19:RegBankx.entrada[23]
WriteReg[23] => RegN:Bank:20:RegBankx.entrada[23]
WriteReg[23] => RegN:Bank:21:RegBankx.entrada[23]
WriteReg[23] => RegN:Bank:22:RegBankx.entrada[23]
WriteReg[23] => RegN:Bank:23:RegBankx.entrada[23]
WriteReg[23] => RegN:Bank:24:RegBankx.entrada[23]
WriteReg[23] => RegN:Bank:25:RegBankx.entrada[23]
WriteReg[23] => RegN:Bank:26:RegBankx.entrada[23]
WriteReg[23] => RegN:Bank:27:RegBankx.entrada[23]
WriteReg[23] => RegN:Bank:28:RegBankx.entrada[23]
WriteReg[23] => RegN:Bank:29:RegBankx.entrada[23]
WriteReg[23] => RegN:Bank:30:RegBankx.entrada[23]
WriteReg[23] => RegN:Bank:31:RegBankx.entrada[23]
WriteReg[24] => RegN:Bank:0:RegBankx.entrada[24]
WriteReg[24] => RegN:Bank:1:RegBankx.entrada[24]
WriteReg[24] => RegN:Bank:2:RegBankx.entrada[24]
WriteReg[24] => RegN:Bank:3:RegBankx.entrada[24]
WriteReg[24] => RegN:Bank:4:RegBankx.entrada[24]
WriteReg[24] => RegN:Bank:5:RegBankx.entrada[24]
WriteReg[24] => RegN:Bank:6:RegBankx.entrada[24]
WriteReg[24] => RegN:Bank:7:RegBankx.entrada[24]
WriteReg[24] => RegN:Bank:8:RegBankx.entrada[24]
WriteReg[24] => RegN:Bank:9:RegBankx.entrada[24]
WriteReg[24] => RegN:Bank:10:RegBankx.entrada[24]
WriteReg[24] => RegN:Bank:11:RegBankx.entrada[24]
WriteReg[24] => RegN:Bank:12:RegBankx.entrada[24]
WriteReg[24] => RegN:Bank:13:RegBankx.entrada[24]
WriteReg[24] => RegN:Bank:14:RegBankx.entrada[24]
WriteReg[24] => RegN:Bank:15:RegBankx.entrada[24]
WriteReg[24] => RegN:Bank:16:RegBankx.entrada[24]
WriteReg[24] => RegN:Bank:17:RegBankx.entrada[24]
WriteReg[24] => RegN:Bank:18:RegBankx.entrada[24]
WriteReg[24] => RegN:Bank:19:RegBankx.entrada[24]
WriteReg[24] => RegN:Bank:20:RegBankx.entrada[24]
WriteReg[24] => RegN:Bank:21:RegBankx.entrada[24]
WriteReg[24] => RegN:Bank:22:RegBankx.entrada[24]
WriteReg[24] => RegN:Bank:23:RegBankx.entrada[24]
WriteReg[24] => RegN:Bank:24:RegBankx.entrada[24]
WriteReg[24] => RegN:Bank:25:RegBankx.entrada[24]
WriteReg[24] => RegN:Bank:26:RegBankx.entrada[24]
WriteReg[24] => RegN:Bank:27:RegBankx.entrada[24]
WriteReg[24] => RegN:Bank:28:RegBankx.entrada[24]
WriteReg[24] => RegN:Bank:29:RegBankx.entrada[24]
WriteReg[24] => RegN:Bank:30:RegBankx.entrada[24]
WriteReg[24] => RegN:Bank:31:RegBankx.entrada[24]
WriteReg[25] => RegN:Bank:0:RegBankx.entrada[25]
WriteReg[25] => RegN:Bank:1:RegBankx.entrada[25]
WriteReg[25] => RegN:Bank:2:RegBankx.entrada[25]
WriteReg[25] => RegN:Bank:3:RegBankx.entrada[25]
WriteReg[25] => RegN:Bank:4:RegBankx.entrada[25]
WriteReg[25] => RegN:Bank:5:RegBankx.entrada[25]
WriteReg[25] => RegN:Bank:6:RegBankx.entrada[25]
WriteReg[25] => RegN:Bank:7:RegBankx.entrada[25]
WriteReg[25] => RegN:Bank:8:RegBankx.entrada[25]
WriteReg[25] => RegN:Bank:9:RegBankx.entrada[25]
WriteReg[25] => RegN:Bank:10:RegBankx.entrada[25]
WriteReg[25] => RegN:Bank:11:RegBankx.entrada[25]
WriteReg[25] => RegN:Bank:12:RegBankx.entrada[25]
WriteReg[25] => RegN:Bank:13:RegBankx.entrada[25]
WriteReg[25] => RegN:Bank:14:RegBankx.entrada[25]
WriteReg[25] => RegN:Bank:15:RegBankx.entrada[25]
WriteReg[25] => RegN:Bank:16:RegBankx.entrada[25]
WriteReg[25] => RegN:Bank:17:RegBankx.entrada[25]
WriteReg[25] => RegN:Bank:18:RegBankx.entrada[25]
WriteReg[25] => RegN:Bank:19:RegBankx.entrada[25]
WriteReg[25] => RegN:Bank:20:RegBankx.entrada[25]
WriteReg[25] => RegN:Bank:21:RegBankx.entrada[25]
WriteReg[25] => RegN:Bank:22:RegBankx.entrada[25]
WriteReg[25] => RegN:Bank:23:RegBankx.entrada[25]
WriteReg[25] => RegN:Bank:24:RegBankx.entrada[25]
WriteReg[25] => RegN:Bank:25:RegBankx.entrada[25]
WriteReg[25] => RegN:Bank:26:RegBankx.entrada[25]
WriteReg[25] => RegN:Bank:27:RegBankx.entrada[25]
WriteReg[25] => RegN:Bank:28:RegBankx.entrada[25]
WriteReg[25] => RegN:Bank:29:RegBankx.entrada[25]
WriteReg[25] => RegN:Bank:30:RegBankx.entrada[25]
WriteReg[25] => RegN:Bank:31:RegBankx.entrada[25]
WriteReg[26] => RegN:Bank:0:RegBankx.entrada[26]
WriteReg[26] => RegN:Bank:1:RegBankx.entrada[26]
WriteReg[26] => RegN:Bank:2:RegBankx.entrada[26]
WriteReg[26] => RegN:Bank:3:RegBankx.entrada[26]
WriteReg[26] => RegN:Bank:4:RegBankx.entrada[26]
WriteReg[26] => RegN:Bank:5:RegBankx.entrada[26]
WriteReg[26] => RegN:Bank:6:RegBankx.entrada[26]
WriteReg[26] => RegN:Bank:7:RegBankx.entrada[26]
WriteReg[26] => RegN:Bank:8:RegBankx.entrada[26]
WriteReg[26] => RegN:Bank:9:RegBankx.entrada[26]
WriteReg[26] => RegN:Bank:10:RegBankx.entrada[26]
WriteReg[26] => RegN:Bank:11:RegBankx.entrada[26]
WriteReg[26] => RegN:Bank:12:RegBankx.entrada[26]
WriteReg[26] => RegN:Bank:13:RegBankx.entrada[26]
WriteReg[26] => RegN:Bank:14:RegBankx.entrada[26]
WriteReg[26] => RegN:Bank:15:RegBankx.entrada[26]
WriteReg[26] => RegN:Bank:16:RegBankx.entrada[26]
WriteReg[26] => RegN:Bank:17:RegBankx.entrada[26]
WriteReg[26] => RegN:Bank:18:RegBankx.entrada[26]
WriteReg[26] => RegN:Bank:19:RegBankx.entrada[26]
WriteReg[26] => RegN:Bank:20:RegBankx.entrada[26]
WriteReg[26] => RegN:Bank:21:RegBankx.entrada[26]
WriteReg[26] => RegN:Bank:22:RegBankx.entrada[26]
WriteReg[26] => RegN:Bank:23:RegBankx.entrada[26]
WriteReg[26] => RegN:Bank:24:RegBankx.entrada[26]
WriteReg[26] => RegN:Bank:25:RegBankx.entrada[26]
WriteReg[26] => RegN:Bank:26:RegBankx.entrada[26]
WriteReg[26] => RegN:Bank:27:RegBankx.entrada[26]
WriteReg[26] => RegN:Bank:28:RegBankx.entrada[26]
WriteReg[26] => RegN:Bank:29:RegBankx.entrada[26]
WriteReg[26] => RegN:Bank:30:RegBankx.entrada[26]
WriteReg[26] => RegN:Bank:31:RegBankx.entrada[26]
WriteReg[27] => RegN:Bank:0:RegBankx.entrada[27]
WriteReg[27] => RegN:Bank:1:RegBankx.entrada[27]
WriteReg[27] => RegN:Bank:2:RegBankx.entrada[27]
WriteReg[27] => RegN:Bank:3:RegBankx.entrada[27]
WriteReg[27] => RegN:Bank:4:RegBankx.entrada[27]
WriteReg[27] => RegN:Bank:5:RegBankx.entrada[27]
WriteReg[27] => RegN:Bank:6:RegBankx.entrada[27]
WriteReg[27] => RegN:Bank:7:RegBankx.entrada[27]
WriteReg[27] => RegN:Bank:8:RegBankx.entrada[27]
WriteReg[27] => RegN:Bank:9:RegBankx.entrada[27]
WriteReg[27] => RegN:Bank:10:RegBankx.entrada[27]
WriteReg[27] => RegN:Bank:11:RegBankx.entrada[27]
WriteReg[27] => RegN:Bank:12:RegBankx.entrada[27]
WriteReg[27] => RegN:Bank:13:RegBankx.entrada[27]
WriteReg[27] => RegN:Bank:14:RegBankx.entrada[27]
WriteReg[27] => RegN:Bank:15:RegBankx.entrada[27]
WriteReg[27] => RegN:Bank:16:RegBankx.entrada[27]
WriteReg[27] => RegN:Bank:17:RegBankx.entrada[27]
WriteReg[27] => RegN:Bank:18:RegBankx.entrada[27]
WriteReg[27] => RegN:Bank:19:RegBankx.entrada[27]
WriteReg[27] => RegN:Bank:20:RegBankx.entrada[27]
WriteReg[27] => RegN:Bank:21:RegBankx.entrada[27]
WriteReg[27] => RegN:Bank:22:RegBankx.entrada[27]
WriteReg[27] => RegN:Bank:23:RegBankx.entrada[27]
WriteReg[27] => RegN:Bank:24:RegBankx.entrada[27]
WriteReg[27] => RegN:Bank:25:RegBankx.entrada[27]
WriteReg[27] => RegN:Bank:26:RegBankx.entrada[27]
WriteReg[27] => RegN:Bank:27:RegBankx.entrada[27]
WriteReg[27] => RegN:Bank:28:RegBankx.entrada[27]
WriteReg[27] => RegN:Bank:29:RegBankx.entrada[27]
WriteReg[27] => RegN:Bank:30:RegBankx.entrada[27]
WriteReg[27] => RegN:Bank:31:RegBankx.entrada[27]
WriteReg[28] => RegN:Bank:0:RegBankx.entrada[28]
WriteReg[28] => RegN:Bank:1:RegBankx.entrada[28]
WriteReg[28] => RegN:Bank:2:RegBankx.entrada[28]
WriteReg[28] => RegN:Bank:3:RegBankx.entrada[28]
WriteReg[28] => RegN:Bank:4:RegBankx.entrada[28]
WriteReg[28] => RegN:Bank:5:RegBankx.entrada[28]
WriteReg[28] => RegN:Bank:6:RegBankx.entrada[28]
WriteReg[28] => RegN:Bank:7:RegBankx.entrada[28]
WriteReg[28] => RegN:Bank:8:RegBankx.entrada[28]
WriteReg[28] => RegN:Bank:9:RegBankx.entrada[28]
WriteReg[28] => RegN:Bank:10:RegBankx.entrada[28]
WriteReg[28] => RegN:Bank:11:RegBankx.entrada[28]
WriteReg[28] => RegN:Bank:12:RegBankx.entrada[28]
WriteReg[28] => RegN:Bank:13:RegBankx.entrada[28]
WriteReg[28] => RegN:Bank:14:RegBankx.entrada[28]
WriteReg[28] => RegN:Bank:15:RegBankx.entrada[28]
WriteReg[28] => RegN:Bank:16:RegBankx.entrada[28]
WriteReg[28] => RegN:Bank:17:RegBankx.entrada[28]
WriteReg[28] => RegN:Bank:18:RegBankx.entrada[28]
WriteReg[28] => RegN:Bank:19:RegBankx.entrada[28]
WriteReg[28] => RegN:Bank:20:RegBankx.entrada[28]
WriteReg[28] => RegN:Bank:21:RegBankx.entrada[28]
WriteReg[28] => RegN:Bank:22:RegBankx.entrada[28]
WriteReg[28] => RegN:Bank:23:RegBankx.entrada[28]
WriteReg[28] => RegN:Bank:24:RegBankx.entrada[28]
WriteReg[28] => RegN:Bank:25:RegBankx.entrada[28]
WriteReg[28] => RegN:Bank:26:RegBankx.entrada[28]
WriteReg[28] => RegN:Bank:27:RegBankx.entrada[28]
WriteReg[28] => RegN:Bank:28:RegBankx.entrada[28]
WriteReg[28] => RegN:Bank:29:RegBankx.entrada[28]
WriteReg[28] => RegN:Bank:30:RegBankx.entrada[28]
WriteReg[28] => RegN:Bank:31:RegBankx.entrada[28]
WriteReg[29] => RegN:Bank:0:RegBankx.entrada[29]
WriteReg[29] => RegN:Bank:1:RegBankx.entrada[29]
WriteReg[29] => RegN:Bank:2:RegBankx.entrada[29]
WriteReg[29] => RegN:Bank:3:RegBankx.entrada[29]
WriteReg[29] => RegN:Bank:4:RegBankx.entrada[29]
WriteReg[29] => RegN:Bank:5:RegBankx.entrada[29]
WriteReg[29] => RegN:Bank:6:RegBankx.entrada[29]
WriteReg[29] => RegN:Bank:7:RegBankx.entrada[29]
WriteReg[29] => RegN:Bank:8:RegBankx.entrada[29]
WriteReg[29] => RegN:Bank:9:RegBankx.entrada[29]
WriteReg[29] => RegN:Bank:10:RegBankx.entrada[29]
WriteReg[29] => RegN:Bank:11:RegBankx.entrada[29]
WriteReg[29] => RegN:Bank:12:RegBankx.entrada[29]
WriteReg[29] => RegN:Bank:13:RegBankx.entrada[29]
WriteReg[29] => RegN:Bank:14:RegBankx.entrada[29]
WriteReg[29] => RegN:Bank:15:RegBankx.entrada[29]
WriteReg[29] => RegN:Bank:16:RegBankx.entrada[29]
WriteReg[29] => RegN:Bank:17:RegBankx.entrada[29]
WriteReg[29] => RegN:Bank:18:RegBankx.entrada[29]
WriteReg[29] => RegN:Bank:19:RegBankx.entrada[29]
WriteReg[29] => RegN:Bank:20:RegBankx.entrada[29]
WriteReg[29] => RegN:Bank:21:RegBankx.entrada[29]
WriteReg[29] => RegN:Bank:22:RegBankx.entrada[29]
WriteReg[29] => RegN:Bank:23:RegBankx.entrada[29]
WriteReg[29] => RegN:Bank:24:RegBankx.entrada[29]
WriteReg[29] => RegN:Bank:25:RegBankx.entrada[29]
WriteReg[29] => RegN:Bank:26:RegBankx.entrada[29]
WriteReg[29] => RegN:Bank:27:RegBankx.entrada[29]
WriteReg[29] => RegN:Bank:28:RegBankx.entrada[29]
WriteReg[29] => RegN:Bank:29:RegBankx.entrada[29]
WriteReg[29] => RegN:Bank:30:RegBankx.entrada[29]
WriteReg[29] => RegN:Bank:31:RegBankx.entrada[29]
WriteReg[30] => RegN:Bank:0:RegBankx.entrada[30]
WriteReg[30] => RegN:Bank:1:RegBankx.entrada[30]
WriteReg[30] => RegN:Bank:2:RegBankx.entrada[30]
WriteReg[30] => RegN:Bank:3:RegBankx.entrada[30]
WriteReg[30] => RegN:Bank:4:RegBankx.entrada[30]
WriteReg[30] => RegN:Bank:5:RegBankx.entrada[30]
WriteReg[30] => RegN:Bank:6:RegBankx.entrada[30]
WriteReg[30] => RegN:Bank:7:RegBankx.entrada[30]
WriteReg[30] => RegN:Bank:8:RegBankx.entrada[30]
WriteReg[30] => RegN:Bank:9:RegBankx.entrada[30]
WriteReg[30] => RegN:Bank:10:RegBankx.entrada[30]
WriteReg[30] => RegN:Bank:11:RegBankx.entrada[30]
WriteReg[30] => RegN:Bank:12:RegBankx.entrada[30]
WriteReg[30] => RegN:Bank:13:RegBankx.entrada[30]
WriteReg[30] => RegN:Bank:14:RegBankx.entrada[30]
WriteReg[30] => RegN:Bank:15:RegBankx.entrada[30]
WriteReg[30] => RegN:Bank:16:RegBankx.entrada[30]
WriteReg[30] => RegN:Bank:17:RegBankx.entrada[30]
WriteReg[30] => RegN:Bank:18:RegBankx.entrada[30]
WriteReg[30] => RegN:Bank:19:RegBankx.entrada[30]
WriteReg[30] => RegN:Bank:20:RegBankx.entrada[30]
WriteReg[30] => RegN:Bank:21:RegBankx.entrada[30]
WriteReg[30] => RegN:Bank:22:RegBankx.entrada[30]
WriteReg[30] => RegN:Bank:23:RegBankx.entrada[30]
WriteReg[30] => RegN:Bank:24:RegBankx.entrada[30]
WriteReg[30] => RegN:Bank:25:RegBankx.entrada[30]
WriteReg[30] => RegN:Bank:26:RegBankx.entrada[30]
WriteReg[30] => RegN:Bank:27:RegBankx.entrada[30]
WriteReg[30] => RegN:Bank:28:RegBankx.entrada[30]
WriteReg[30] => RegN:Bank:29:RegBankx.entrada[30]
WriteReg[30] => RegN:Bank:30:RegBankx.entrada[30]
WriteReg[30] => RegN:Bank:31:RegBankx.entrada[30]
WriteReg[31] => RegN:Bank:0:RegBankx.entrada[31]
WriteReg[31] => RegN:Bank:1:RegBankx.entrada[31]
WriteReg[31] => RegN:Bank:2:RegBankx.entrada[31]
WriteReg[31] => RegN:Bank:3:RegBankx.entrada[31]
WriteReg[31] => RegN:Bank:4:RegBankx.entrada[31]
WriteReg[31] => RegN:Bank:5:RegBankx.entrada[31]
WriteReg[31] => RegN:Bank:6:RegBankx.entrada[31]
WriteReg[31] => RegN:Bank:7:RegBankx.entrada[31]
WriteReg[31] => RegN:Bank:8:RegBankx.entrada[31]
WriteReg[31] => RegN:Bank:9:RegBankx.entrada[31]
WriteReg[31] => RegN:Bank:10:RegBankx.entrada[31]
WriteReg[31] => RegN:Bank:11:RegBankx.entrada[31]
WriteReg[31] => RegN:Bank:12:RegBankx.entrada[31]
WriteReg[31] => RegN:Bank:13:RegBankx.entrada[31]
WriteReg[31] => RegN:Bank:14:RegBankx.entrada[31]
WriteReg[31] => RegN:Bank:15:RegBankx.entrada[31]
WriteReg[31] => RegN:Bank:16:RegBankx.entrada[31]
WriteReg[31] => RegN:Bank:17:RegBankx.entrada[31]
WriteReg[31] => RegN:Bank:18:RegBankx.entrada[31]
WriteReg[31] => RegN:Bank:19:RegBankx.entrada[31]
WriteReg[31] => RegN:Bank:20:RegBankx.entrada[31]
WriteReg[31] => RegN:Bank:21:RegBankx.entrada[31]
WriteReg[31] => RegN:Bank:22:RegBankx.entrada[31]
WriteReg[31] => RegN:Bank:23:RegBankx.entrada[31]
WriteReg[31] => RegN:Bank:24:RegBankx.entrada[31]
WriteReg[31] => RegN:Bank:25:RegBankx.entrada[31]
WriteReg[31] => RegN:Bank:26:RegBankx.entrada[31]
WriteReg[31] => RegN:Bank:27:RegBankx.entrada[31]
WriteReg[31] => RegN:Bank:28:RegBankx.entrada[31]
WriteReg[31] => RegN:Bank:29:RegBankx.entrada[31]
WriteReg[31] => RegN:Bank:30:RegBankx.entrada[31]
WriteReg[31] => RegN:Bank:31:RegBankx.entrada[31]
reset => RegN:Bank:0:RegBankx.reset
reset => RegN:Bank:1:RegBankx.reset
reset => RegN:Bank:2:RegBankx.reset
reset => RegN:Bank:3:RegBankx.reset
reset => RegN:Bank:4:RegBankx.reset
reset => RegN:Bank:5:RegBankx.reset
reset => RegN:Bank:6:RegBankx.reset
reset => RegN:Bank:7:RegBankx.reset
reset => RegN:Bank:8:RegBankx.reset
reset => RegN:Bank:9:RegBankx.reset
reset => RegN:Bank:10:RegBankx.reset
reset => RegN:Bank:11:RegBankx.reset
reset => RegN:Bank:12:RegBankx.reset
reset => RegN:Bank:13:RegBankx.reset
reset => RegN:Bank:14:RegBankx.reset
reset => RegN:Bank:15:RegBankx.reset
reset => RegN:Bank:16:RegBankx.reset
reset => RegN:Bank:17:RegBankx.reset
reset => RegN:Bank:18:RegBankx.reset
reset => RegN:Bank:19:RegBankx.reset
reset => RegN:Bank:20:RegBankx.reset
reset => RegN:Bank:21:RegBankx.reset
reset => RegN:Bank:22:RegBankx.reset
reset => RegN:Bank:23:RegBankx.reset
reset => RegN:Bank:24:RegBankx.reset
reset => RegN:Bank:25:RegBankx.reset
reset => RegN:Bank:26:RegBankx.reset
reset => RegN:Bank:27:RegBankx.reset
reset => RegN:Bank:28:RegBankx.reset
reset => RegN:Bank:29:RegBankx.reset
reset => RegN:Bank:30:RegBankx.reset
reset => RegN:Bank:31:RegBankx.reset
clock => RegN:Bank:0:RegBankx.clock
clock => RegN:Bank:1:RegBankx.clock
clock => RegN:Bank:2:RegBankx.clock
clock => RegN:Bank:3:RegBankx.clock
clock => RegN:Bank:4:RegBankx.clock
clock => RegN:Bank:5:RegBankx.clock
clock => RegN:Bank:6:RegBankx.clock
clock => RegN:Bank:7:RegBankx.clock
clock => RegN:Bank:8:RegBankx.clock
clock => RegN:Bank:9:RegBankx.clock
clock => RegN:Bank:10:RegBankx.clock
clock => RegN:Bank:11:RegBankx.clock
clock => RegN:Bank:12:RegBankx.clock
clock => RegN:Bank:13:RegBankx.clock
clock => RegN:Bank:14:RegBankx.clock
clock => RegN:Bank:15:RegBankx.clock
clock => RegN:Bank:16:RegBankx.clock
clock => RegN:Bank:17:RegBankx.clock
clock => RegN:Bank:18:RegBankx.clock
clock => RegN:Bank:19:RegBankx.clock
clock => RegN:Bank:20:RegBankx.clock
clock => RegN:Bank:21:RegBankx.clock
clock => RegN:Bank:22:RegBankx.clock
clock => RegN:Bank:23:RegBankx.clock
clock => RegN:Bank:24:RegBankx.clock
clock => RegN:Bank:25:RegBankx.clock
clock => RegN:Bank:26:RegBankx.clock
clock => RegN:Bank:27:RegBankx.clock
clock => RegN:Bank:28:RegBankx.clock
clock => RegN:Bank:29:RegBankx.clock
clock => RegN:Bank:30:RegBankx.clock
clock => RegN:Bank:31:RegBankx.clock
EnableWrite => aux_enable[0].IN1
EnableWrite => aux_enable[1].IN1
EnableWrite => aux_enable[2].IN1
EnableWrite => aux_enable[3].IN1
EnableWrite => aux_enable[4].IN1
EnableWrite => aux_enable[5].IN1
EnableWrite => aux_enable[6].IN1
EnableWrite => aux_enable[7].IN1
EnableWrite => aux_enable[8].IN1
EnableWrite => aux_enable[9].IN1
EnableWrite => aux_enable[10].IN1
EnableWrite => aux_enable[11].IN1
EnableWrite => aux_enable[12].IN1
EnableWrite => aux_enable[13].IN1
EnableWrite => aux_enable[14].IN1
EnableWrite => aux_enable[15].IN1
EnableWrite => aux_enable[16].IN1
EnableWrite => aux_enable[17].IN1
EnableWrite => aux_enable[18].IN1
EnableWrite => aux_enable[19].IN1
EnableWrite => aux_enable[20].IN1
EnableWrite => aux_enable[21].IN1
EnableWrite => aux_enable[22].IN1
EnableWrite => aux_enable[23].IN1
EnableWrite => aux_enable[24].IN1
EnableWrite => aux_enable[25].IN1
EnableWrite => aux_enable[26].IN1
EnableWrite => aux_enable[27].IN1
EnableWrite => aux_enable[28].IN1
EnableWrite => aux_enable[29].IN1
EnableWrite => aux_enable[30].IN1
EnableWrite => aux_enable[31].IN1
ReadReg1[0] => mux_32x1:Mux_Out1.sel[0]
ReadReg1[1] => mux_32x1:Mux_Out1.sel[1]
ReadReg1[2] => mux_32x1:Mux_Out1.sel[2]
ReadReg1[3] => mux_32x1:Mux_Out1.sel[3]
ReadReg1[4] => mux_32x1:Mux_Out1.sel[4]
ReadReg2[0] => mux_32x1:Mux_Out2.sel[0]
ReadReg2[1] => mux_32x1:Mux_Out2.sel[1]
ReadReg2[2] => mux_32x1:Mux_Out2.sel[2]
ReadReg2[3] => mux_32x1:Mux_Out2.sel[3]
ReadReg2[4] => mux_32x1:Mux_Out2.sel[4]
WriteRegNr[0] => dec_5x1:Dec_Out.entrada[0]
WriteRegNr[1] => dec_5x1:Dec_Out.entrada[1]
WriteRegNr[2] => dec_5x1:Dec_Out.entrada[2]
WriteRegNr[3] => dec_5x1:Dec_Out.entrada[3]
WriteRegNr[4] => dec_5x1:Dec_Out.entrada[4]
out1[0] <= mux_32x1:Mux_Out1.saida[0]
out1[1] <= mux_32x1:Mux_Out1.saida[1]
out1[2] <= mux_32x1:Mux_Out1.saida[2]
out1[3] <= mux_32x1:Mux_Out1.saida[3]
out1[4] <= mux_32x1:Mux_Out1.saida[4]
out1[5] <= mux_32x1:Mux_Out1.saida[5]
out1[6] <= mux_32x1:Mux_Out1.saida[6]
out1[7] <= mux_32x1:Mux_Out1.saida[7]
out1[8] <= mux_32x1:Mux_Out1.saida[8]
out1[9] <= mux_32x1:Mux_Out1.saida[9]
out1[10] <= mux_32x1:Mux_Out1.saida[10]
out1[11] <= mux_32x1:Mux_Out1.saida[11]
out1[12] <= mux_32x1:Mux_Out1.saida[12]
out1[13] <= mux_32x1:Mux_Out1.saida[13]
out1[14] <= mux_32x1:Mux_Out1.saida[14]
out1[15] <= mux_32x1:Mux_Out1.saida[15]
out1[16] <= mux_32x1:Mux_Out1.saida[16]
out1[17] <= mux_32x1:Mux_Out1.saida[17]
out1[18] <= mux_32x1:Mux_Out1.saida[18]
out1[19] <= mux_32x1:Mux_Out1.saida[19]
out1[20] <= mux_32x1:Mux_Out1.saida[20]
out1[21] <= mux_32x1:Mux_Out1.saida[21]
out1[22] <= mux_32x1:Mux_Out1.saida[22]
out1[23] <= mux_32x1:Mux_Out1.saida[23]
out1[24] <= mux_32x1:Mux_Out1.saida[24]
out1[25] <= mux_32x1:Mux_Out1.saida[25]
out1[26] <= mux_32x1:Mux_Out1.saida[26]
out1[27] <= mux_32x1:Mux_Out1.saida[27]
out1[28] <= mux_32x1:Mux_Out1.saida[28]
out1[29] <= mux_32x1:Mux_Out1.saida[29]
out1[30] <= mux_32x1:Mux_Out1.saida[30]
out1[31] <= mux_32x1:Mux_Out1.saida[31]
out2[0] <= mux_32x1:Mux_Out2.saida[0]
out2[1] <= mux_32x1:Mux_Out2.saida[1]
out2[2] <= mux_32x1:Mux_Out2.saida[2]
out2[3] <= mux_32x1:Mux_Out2.saida[3]
out2[4] <= mux_32x1:Mux_Out2.saida[4]
out2[5] <= mux_32x1:Mux_Out2.saida[5]
out2[6] <= mux_32x1:Mux_Out2.saida[6]
out2[7] <= mux_32x1:Mux_Out2.saida[7]
out2[8] <= mux_32x1:Mux_Out2.saida[8]
out2[9] <= mux_32x1:Mux_Out2.saida[9]
out2[10] <= mux_32x1:Mux_Out2.saida[10]
out2[11] <= mux_32x1:Mux_Out2.saida[11]
out2[12] <= mux_32x1:Mux_Out2.saida[12]
out2[13] <= mux_32x1:Mux_Out2.saida[13]
out2[14] <= mux_32x1:Mux_Out2.saida[14]
out2[15] <= mux_32x1:Mux_Out2.saida[15]
out2[16] <= mux_32x1:Mux_Out2.saida[16]
out2[17] <= mux_32x1:Mux_Out2.saida[17]
out2[18] <= mux_32x1:Mux_Out2.saida[18]
out2[19] <= mux_32x1:Mux_Out2.saida[19]
out2[20] <= mux_32x1:Mux_Out2.saida[20]
out2[21] <= mux_32x1:Mux_Out2.saida[21]
out2[22] <= mux_32x1:Mux_Out2.saida[22]
out2[23] <= mux_32x1:Mux_Out2.saida[23]
out2[24] <= mux_32x1:Mux_Out2.saida[24]
out2[25] <= mux_32x1:Mux_Out2.saida[25]
out2[26] <= mux_32x1:Mux_Out2.saida[26]
out2[27] <= mux_32x1:Mux_Out2.saida[27]
out2[28] <= mux_32x1:Mux_Out2.saida[28]
out2[29] <= mux_32x1:Mux_Out2.saida[29]
out2[30] <= mux_32x1:Mux_Out2.saida[30]
out2[31] <= mux_32x1:Mux_Out2.saida[31]


|MIPS|RegBank:REGISSTRADORES|RegN:\Bank:0:RegBankx
entrada[0] => saida[0]~reg0.DATAIN
entrada[1] => saida[1]~reg0.DATAIN
entrada[2] => saida[2]~reg0.DATAIN
entrada[3] => saida[3]~reg0.DATAIN
entrada[4] => saida[4]~reg0.DATAIN
entrada[5] => saida[5]~reg0.DATAIN
entrada[6] => saida[6]~reg0.DATAIN
entrada[7] => saida[7]~reg0.DATAIN
entrada[8] => saida[8]~reg0.DATAIN
entrada[9] => saida[9]~reg0.DATAIN
entrada[10] => saida[10]~reg0.DATAIN
entrada[11] => saida[11]~reg0.DATAIN
entrada[12] => saida[12]~reg0.DATAIN
entrada[13] => saida[13]~reg0.DATAIN
entrada[14] => saida[14]~reg0.DATAIN
entrada[15] => saida[15]~reg0.DATAIN
entrada[16] => saida[16]~reg0.DATAIN
entrada[17] => saida[17]~reg0.DATAIN
entrada[18] => saida[18]~reg0.DATAIN
entrada[19] => saida[19]~reg0.DATAIN
entrada[20] => saida[20]~reg0.DATAIN
entrada[21] => saida[21]~reg0.DATAIN
entrada[22] => saida[22]~reg0.DATAIN
entrada[23] => saida[23]~reg0.DATAIN
entrada[24] => saida[24]~reg0.DATAIN
entrada[25] => saida[25]~reg0.DATAIN
entrada[26] => saida[26]~reg0.DATAIN
entrada[27] => saida[27]~reg0.DATAIN
entrada[28] => saida[28]~reg0.DATAIN
entrada[29] => saida[29]~reg0.DATAIN
entrada[30] => saida[30]~reg0.DATAIN
entrada[31] => saida[31]~reg0.DATAIN
reset => saida[0]~reg0.ACLR
reset => saida[1]~reg0.ACLR
reset => saida[2]~reg0.ACLR
reset => saida[3]~reg0.ACLR
reset => saida[4]~reg0.ACLR
reset => saida[5]~reg0.ACLR
reset => saida[6]~reg0.ACLR
reset => saida[7]~reg0.ACLR
reset => saida[8]~reg0.ACLR
reset => saida[9]~reg0.ACLR
reset => saida[10]~reg0.ACLR
reset => saida[11]~reg0.ACLR
reset => saida[12]~reg0.ACLR
reset => saida[13]~reg0.ACLR
reset => saida[14]~reg0.ACLR
reset => saida[15]~reg0.ACLR
reset => saida[16]~reg0.ACLR
reset => saida[17]~reg0.ACLR
reset => saida[18]~reg0.ACLR
reset => saida[19]~reg0.ACLR
reset => saida[20]~reg0.ACLR
reset => saida[21]~reg0.ACLR
reset => saida[22]~reg0.ACLR
reset => saida[23]~reg0.ACLR
reset => saida[24]~reg0.ACLR
reset => saida[25]~reg0.ACLR
reset => saida[26]~reg0.ACLR
reset => saida[27]~reg0.ACLR
reset => saida[28]~reg0.ACLR
reset => saida[29]~reg0.ACLR
reset => saida[30]~reg0.ACLR
reset => saida[31]~reg0.ACLR
clock => saida[0]~reg0.CLK
clock => saida[1]~reg0.CLK
clock => saida[2]~reg0.CLK
clock => saida[3]~reg0.CLK
clock => saida[4]~reg0.CLK
clock => saida[5]~reg0.CLK
clock => saida[6]~reg0.CLK
clock => saida[7]~reg0.CLK
clock => saida[8]~reg0.CLK
clock => saida[9]~reg0.CLK
clock => saida[10]~reg0.CLK
clock => saida[11]~reg0.CLK
clock => saida[12]~reg0.CLK
clock => saida[13]~reg0.CLK
clock => saida[14]~reg0.CLK
clock => saida[15]~reg0.CLK
clock => saida[16]~reg0.CLK
clock => saida[17]~reg0.CLK
clock => saida[18]~reg0.CLK
clock => saida[19]~reg0.CLK
clock => saida[20]~reg0.CLK
clock => saida[21]~reg0.CLK
clock => saida[22]~reg0.CLK
clock => saida[23]~reg0.CLK
clock => saida[24]~reg0.CLK
clock => saida[25]~reg0.CLK
clock => saida[26]~reg0.CLK
clock => saida[27]~reg0.CLK
clock => saida[28]~reg0.CLK
clock => saida[29]~reg0.CLK
clock => saida[30]~reg0.CLK
clock => saida[31]~reg0.CLK
enable => saida[0]~reg0.ENA
enable => saida[1]~reg0.ENA
enable => saida[2]~reg0.ENA
enable => saida[3]~reg0.ENA
enable => saida[4]~reg0.ENA
enable => saida[5]~reg0.ENA
enable => saida[6]~reg0.ENA
enable => saida[7]~reg0.ENA
enable => saida[8]~reg0.ENA
enable => saida[9]~reg0.ENA
enable => saida[10]~reg0.ENA
enable => saida[11]~reg0.ENA
enable => saida[12]~reg0.ENA
enable => saida[13]~reg0.ENA
enable => saida[14]~reg0.ENA
enable => saida[15]~reg0.ENA
enable => saida[16]~reg0.ENA
enable => saida[17]~reg0.ENA
enable => saida[18]~reg0.ENA
enable => saida[19]~reg0.ENA
enable => saida[20]~reg0.ENA
enable => saida[21]~reg0.ENA
enable => saida[22]~reg0.ENA
enable => saida[23]~reg0.ENA
enable => saida[24]~reg0.ENA
enable => saida[25]~reg0.ENA
enable => saida[26]~reg0.ENA
enable => saida[27]~reg0.ENA
enable => saida[28]~reg0.ENA
enable => saida[29]~reg0.ENA
enable => saida[30]~reg0.ENA
enable => saida[31]~reg0.ENA
saida[0] <= saida[0]~reg0.DB_MAX_OUTPUT_PORT_TYPE
saida[1] <= saida[1]~reg0.DB_MAX_OUTPUT_PORT_TYPE
saida[2] <= saida[2]~reg0.DB_MAX_OUTPUT_PORT_TYPE
saida[3] <= saida[3]~reg0.DB_MAX_OUTPUT_PORT_TYPE
saida[4] <= saida[4]~reg0.DB_MAX_OUTPUT_PORT_TYPE
saida[5] <= saida[5]~reg0.DB_MAX_OUTPUT_PORT_TYPE
saida[6] <= saida[6]~reg0.DB_MAX_OUTPUT_PORT_TYPE
saida[7] <= saida[7]~reg0.DB_MAX_OUTPUT_PORT_TYPE
saida[8] <= saida[8]~reg0.DB_MAX_OUTPUT_PORT_TYPE
saida[9] <= saida[9]~reg0.DB_MAX_OUTPUT_PORT_TYPE
saida[10] <= saida[10]~reg0.DB_MAX_OUTPUT_PORT_TYPE
saida[11] <= saida[11]~reg0.DB_MAX_OUTPUT_PORT_TYPE
saida[12] <= saida[12]~reg0.DB_MAX_OUTPUT_PORT_TYPE
saida[13] <= saida[13]~reg0.DB_MAX_OUTPUT_PORT_TYPE
saida[14] <= saida[14]~reg0.DB_MAX_OUTPUT_PORT_TYPE
saida[15] <= saida[15]~reg0.DB_MAX_OUTPUT_PORT_TYPE
saida[16] <= saida[16]~reg0.DB_MAX_OUTPUT_PORT_TYPE
saida[17] <= saida[17]~reg0.DB_MAX_OUTPUT_PORT_TYPE
saida[18] <= saida[18]~reg0.DB_MAX_OUTPUT_PORT_TYPE
saida[19] <= saida[19]~reg0.DB_MAX_OUTPUT_PORT_TYPE
saida[20] <= saida[20]~reg0.DB_MAX_OUTPUT_PORT_TYPE
saida[21] <= saida[21]~reg0.DB_MAX_OUTPUT_PORT_TYPE
saida[22] <= saida[22]~reg0.DB_MAX_OUTPUT_PORT_TYPE
saida[23] <= saida[23]~reg0.DB_MAX_OUTPUT_PORT_TYPE
saida[24] <= saida[24]~reg0.DB_MAX_OUTPUT_PORT_TYPE
saida[25] <= saida[25]~reg0.DB_MAX_OUTPUT_PORT_TYPE
saida[26] <= saida[26]~reg0.DB_MAX_OUTPUT_PORT_TYPE
saida[27] <= saida[27]~reg0.DB_MAX_OUTPUT_PORT_TYPE
saida[28] <= saida[28]~reg0.DB_MAX_OUTPUT_PORT_TYPE
saida[29] <= saida[29]~reg0.DB_MAX_OUTPUT_PORT_TYPE
saida[30] <= saida[30]~reg0.DB_MAX_OUTPUT_PORT_TYPE
saida[31] <= saida[31]~reg0.DB_MAX_OUTPUT_PORT_TYPE


|MIPS|RegBank:REGISSTRADORES|RegN:\Bank:1:RegBankx
entrada[0] => saida[0]~reg0.DATAIN
entrada[1] => saida[1]~reg0.DATAIN
entrada[2] => saida[2]~reg0.DATAIN
entrada[3] => saida[3]~reg0.DATAIN
entrada[4] => saida[4]~reg0.DATAIN
entrada[5] => saida[5]~reg0.DATAIN
entrada[6] => saida[6]~reg0.DATAIN
entrada[7] => saida[7]~reg0.DATAIN
entrada[8] => saida[8]~reg0.DATAIN
entrada[9] => saida[9]~reg0.DATAIN
entrada[10] => saida[10]~reg0.DATAIN
entrada[11] => saida[11]~reg0.DATAIN
entrada[12] => saida[12]~reg0.DATAIN
entrada[13] => saida[13]~reg0.DATAIN
entrada[14] => saida[14]~reg0.DATAIN
entrada[15] => saida[15]~reg0.DATAIN
entrada[16] => saida[16]~reg0.DATAIN
entrada[17] => saida[17]~reg0.DATAIN
entrada[18] => saida[18]~reg0.DATAIN
entrada[19] => saida[19]~reg0.DATAIN
entrada[20] => saida[20]~reg0.DATAIN
entrada[21] => saida[21]~reg0.DATAIN
entrada[22] => saida[22]~reg0.DATAIN
entrada[23] => saida[23]~reg0.DATAIN
entrada[24] => saida[24]~reg0.DATAIN
entrada[25] => saida[25]~reg0.DATAIN
entrada[26] => saida[26]~reg0.DATAIN
entrada[27] => saida[27]~reg0.DATAIN
entrada[28] => saida[28]~reg0.DATAIN
entrada[29] => saida[29]~reg0.DATAIN
entrada[30] => saida[30]~reg0.DATAIN
entrada[31] => saida[31]~reg0.DATAIN
reset => saida[0]~reg0.ACLR
reset => saida[1]~reg0.ACLR
reset => saida[2]~reg0.ACLR
reset => saida[3]~reg0.ACLR
reset => saida[4]~reg0.ACLR
reset => saida[5]~reg0.ACLR
reset => saida[6]~reg0.ACLR
reset => saida[7]~reg0.ACLR
reset => saida[8]~reg0.ACLR
reset => saida[9]~reg0.ACLR
reset => saida[10]~reg0.ACLR
reset => saida[11]~reg0.ACLR
reset => saida[12]~reg0.ACLR
reset => saida[13]~reg0.ACLR
reset => saida[14]~reg0.ACLR
reset => saida[15]~reg0.ACLR
reset => saida[16]~reg0.ACLR
reset => saida[17]~reg0.ACLR
reset => saida[18]~reg0.ACLR
reset => saida[19]~reg0.ACLR
reset => saida[20]~reg0.ACLR
reset => saida[21]~reg0.ACLR
reset => saida[22]~reg0.ACLR
reset => saida[23]~reg0.ACLR
reset => saida[24]~reg0.ACLR
reset => saida[25]~reg0.ACLR
reset => saida[26]~reg0.ACLR
reset => saida[27]~reg0.ACLR
reset => saida[28]~reg0.ACLR
reset => saida[29]~reg0.ACLR
reset => saida[30]~reg0.ACLR
reset => saida[31]~reg0.ACLR
clock => saida[0]~reg0.CLK
clock => saida[1]~reg0.CLK
clock => saida[2]~reg0.CLK
clock => saida[3]~reg0.CLK
clock => saida[4]~reg0.CLK
clock => saida[5]~reg0.CLK
clock => saida[6]~reg0.CLK
clock => saida[7]~reg0.CLK
clock => saida[8]~reg0.CLK
clock => saida[9]~reg0.CLK
clock => saida[10]~reg0.CLK
clock => saida[11]~reg0.CLK
clock => saida[12]~reg0.CLK
clock => saida[13]~reg0.CLK
clock => saida[14]~reg0.CLK
clock => saida[15]~reg0.CLK
clock => saida[16]~reg0.CLK
clock => saida[17]~reg0.CLK
clock => saida[18]~reg0.CLK
clock => saida[19]~reg0.CLK
clock => saida[20]~reg0.CLK
clock => saida[21]~reg0.CLK
clock => saida[22]~reg0.CLK
clock => saida[23]~reg0.CLK
clock => saida[24]~reg0.CLK
clock => saida[25]~reg0.CLK
clock => saida[26]~reg0.CLK
clock => saida[27]~reg0.CLK
clock => saida[28]~reg0.CLK
clock => saida[29]~reg0.CLK
clock => saida[30]~reg0.CLK
clock => saida[31]~reg0.CLK
enable => saida[0]~reg0.ENA
enable => saida[1]~reg0.ENA
enable => saida[2]~reg0.ENA
enable => saida[3]~reg0.ENA
enable => saida[4]~reg0.ENA
enable => saida[5]~reg0.ENA
enable => saida[6]~reg0.ENA
enable => saida[7]~reg0.ENA
enable => saida[8]~reg0.ENA
enable => saida[9]~reg0.ENA
enable => saida[10]~reg0.ENA
enable => saida[11]~reg0.ENA
enable => saida[12]~reg0.ENA
enable => saida[13]~reg0.ENA
enable => saida[14]~reg0.ENA
enable => saida[15]~reg0.ENA
enable => saida[16]~reg0.ENA
enable => saida[17]~reg0.ENA
enable => saida[18]~reg0.ENA
enable => saida[19]~reg0.ENA
enable => saida[20]~reg0.ENA
enable => saida[21]~reg0.ENA
enable => saida[22]~reg0.ENA
enable => saida[23]~reg0.ENA
enable => saida[24]~reg0.ENA
enable => saida[25]~reg0.ENA
enable => saida[26]~reg0.ENA
enable => saida[27]~reg0.ENA
enable => saida[28]~reg0.ENA
enable => saida[29]~reg0.ENA
enable => saida[30]~reg0.ENA
enable => saida[31]~reg0.ENA
saida[0] <= saida[0]~reg0.DB_MAX_OUTPUT_PORT_TYPE
saida[1] <= saida[1]~reg0.DB_MAX_OUTPUT_PORT_TYPE
saida[2] <= saida[2]~reg0.DB_MAX_OUTPUT_PORT_TYPE
saida[3] <= saida[3]~reg0.DB_MAX_OUTPUT_PORT_TYPE
saida[4] <= saida[4]~reg0.DB_MAX_OUTPUT_PORT_TYPE
saida[5] <= saida[5]~reg0.DB_MAX_OUTPUT_PORT_TYPE
saida[6] <= saida[6]~reg0.DB_MAX_OUTPUT_PORT_TYPE
saida[7] <= saida[7]~reg0.DB_MAX_OUTPUT_PORT_TYPE
saida[8] <= saida[8]~reg0.DB_MAX_OUTPUT_PORT_TYPE
saida[9] <= saida[9]~reg0.DB_MAX_OUTPUT_PORT_TYPE
saida[10] <= saida[10]~reg0.DB_MAX_OUTPUT_PORT_TYPE
saida[11] <= saida[11]~reg0.DB_MAX_OUTPUT_PORT_TYPE
saida[12] <= saida[12]~reg0.DB_MAX_OUTPUT_PORT_TYPE
saida[13] <= saida[13]~reg0.DB_MAX_OUTPUT_PORT_TYPE
saida[14] <= saida[14]~reg0.DB_MAX_OUTPUT_PORT_TYPE
saida[15] <= saida[15]~reg0.DB_MAX_OUTPUT_PORT_TYPE
saida[16] <= saida[16]~reg0.DB_MAX_OUTPUT_PORT_TYPE
saida[17] <= saida[17]~reg0.DB_MAX_OUTPUT_PORT_TYPE
saida[18] <= saida[18]~reg0.DB_MAX_OUTPUT_PORT_TYPE
saida[19] <= saida[19]~reg0.DB_MAX_OUTPUT_PORT_TYPE
saida[20] <= saida[20]~reg0.DB_MAX_OUTPUT_PORT_TYPE
saida[21] <= saida[21]~reg0.DB_MAX_OUTPUT_PORT_TYPE
saida[22] <= saida[22]~reg0.DB_MAX_OUTPUT_PORT_TYPE
saida[23] <= saida[23]~reg0.DB_MAX_OUTPUT_PORT_TYPE
saida[24] <= saida[24]~reg0.DB_MAX_OUTPUT_PORT_TYPE
saida[25] <= saida[25]~reg0.DB_MAX_OUTPUT_PORT_TYPE
saida[26] <= saida[26]~reg0.DB_MAX_OUTPUT_PORT_TYPE
saida[27] <= saida[27]~reg0.DB_MAX_OUTPUT_PORT_TYPE
saida[28] <= saida[28]~reg0.DB_MAX_OUTPUT_PORT_TYPE
saida[29] <= saida[29]~reg0.DB_MAX_OUTPUT_PORT_TYPE
saida[30] <= saida[30]~reg0.DB_MAX_OUTPUT_PORT_TYPE
saida[31] <= saida[31]~reg0.DB_MAX_OUTPUT_PORT_TYPE


|MIPS|RegBank:REGISSTRADORES|RegN:\Bank:2:RegBankx
entrada[0] => saida[0]~reg0.DATAIN
entrada[1] => saida[1]~reg0.DATAIN
entrada[2] => saida[2]~reg0.DATAIN
entrada[3] => saida[3]~reg0.DATAIN
entrada[4] => saida[4]~reg0.DATAIN
entrada[5] => saida[5]~reg0.DATAIN
entrada[6] => saida[6]~reg0.DATAIN
entrada[7] => saida[7]~reg0.DATAIN
entrada[8] => saida[8]~reg0.DATAIN
entrada[9] => saida[9]~reg0.DATAIN
entrada[10] => saida[10]~reg0.DATAIN
entrada[11] => saida[11]~reg0.DATAIN
entrada[12] => saida[12]~reg0.DATAIN
entrada[13] => saida[13]~reg0.DATAIN
entrada[14] => saida[14]~reg0.DATAIN
entrada[15] => saida[15]~reg0.DATAIN
entrada[16] => saida[16]~reg0.DATAIN
entrada[17] => saida[17]~reg0.DATAIN
entrada[18] => saida[18]~reg0.DATAIN
entrada[19] => saida[19]~reg0.DATAIN
entrada[20] => saida[20]~reg0.DATAIN
entrada[21] => saida[21]~reg0.DATAIN
entrada[22] => saida[22]~reg0.DATAIN
entrada[23] => saida[23]~reg0.DATAIN
entrada[24] => saida[24]~reg0.DATAIN
entrada[25] => saida[25]~reg0.DATAIN
entrada[26] => saida[26]~reg0.DATAIN
entrada[27] => saida[27]~reg0.DATAIN
entrada[28] => saida[28]~reg0.DATAIN
entrada[29] => saida[29]~reg0.DATAIN
entrada[30] => saida[30]~reg0.DATAIN
entrada[31] => saida[31]~reg0.DATAIN
reset => saida[0]~reg0.ACLR
reset => saida[1]~reg0.ACLR
reset => saida[2]~reg0.ACLR
reset => saida[3]~reg0.ACLR
reset => saida[4]~reg0.ACLR
reset => saida[5]~reg0.ACLR
reset => saida[6]~reg0.ACLR
reset => saida[7]~reg0.ACLR
reset => saida[8]~reg0.ACLR
reset => saida[9]~reg0.ACLR
reset => saida[10]~reg0.ACLR
reset => saida[11]~reg0.ACLR
reset => saida[12]~reg0.ACLR
reset => saida[13]~reg0.ACLR
reset => saida[14]~reg0.ACLR
reset => saida[15]~reg0.ACLR
reset => saida[16]~reg0.ACLR
reset => saida[17]~reg0.ACLR
reset => saida[18]~reg0.ACLR
reset => saida[19]~reg0.ACLR
reset => saida[20]~reg0.ACLR
reset => saida[21]~reg0.ACLR
reset => saida[22]~reg0.ACLR
reset => saida[23]~reg0.ACLR
reset => saida[24]~reg0.ACLR
reset => saida[25]~reg0.ACLR
reset => saida[26]~reg0.ACLR
reset => saida[27]~reg0.ACLR
reset => saida[28]~reg0.ACLR
reset => saida[29]~reg0.ACLR
reset => saida[30]~reg0.ACLR
reset => saida[31]~reg0.ACLR
clock => saida[0]~reg0.CLK
clock => saida[1]~reg0.CLK
clock => saida[2]~reg0.CLK
clock => saida[3]~reg0.CLK
clock => saida[4]~reg0.CLK
clock => saida[5]~reg0.CLK
clock => saida[6]~reg0.CLK
clock => saida[7]~reg0.CLK
clock => saida[8]~reg0.CLK
clock => saida[9]~reg0.CLK
clock => saida[10]~reg0.CLK
clock => saida[11]~reg0.CLK
clock => saida[12]~reg0.CLK
clock => saida[13]~reg0.CLK
clock => saida[14]~reg0.CLK
clock => saida[15]~reg0.CLK
clock => saida[16]~reg0.CLK
clock => saida[17]~reg0.CLK
clock => saida[18]~reg0.CLK
clock => saida[19]~reg0.CLK
clock => saida[20]~reg0.CLK
clock => saida[21]~reg0.CLK
clock => saida[22]~reg0.CLK
clock => saida[23]~reg0.CLK
clock => saida[24]~reg0.CLK
clock => saida[25]~reg0.CLK
clock => saida[26]~reg0.CLK
clock => saida[27]~reg0.CLK
clock => saida[28]~reg0.CLK
clock => saida[29]~reg0.CLK
clock => saida[30]~reg0.CLK
clock => saida[31]~reg0.CLK
enable => saida[0]~reg0.ENA
enable => saida[1]~reg0.ENA
enable => saida[2]~reg0.ENA
enable => saida[3]~reg0.ENA
enable => saida[4]~reg0.ENA
enable => saida[5]~reg0.ENA
enable => saida[6]~reg0.ENA
enable => saida[7]~reg0.ENA
enable => saida[8]~reg0.ENA
enable => saida[9]~reg0.ENA
enable => saida[10]~reg0.ENA
enable => saida[11]~reg0.ENA
enable => saida[12]~reg0.ENA
enable => saida[13]~reg0.ENA
enable => saida[14]~reg0.ENA
enable => saida[15]~reg0.ENA
enable => saida[16]~reg0.ENA
enable => saida[17]~reg0.ENA
